<Qucs Dataset 0.0.16>
<indep acfrequency 200>
  +1.00000000000e+000
  +1.05956017928e+000
  +1.12266777351e+000
  +1.18953406737e+000
  +1.26038292968e+000
  +1.33545156293e+000
  +1.41499129743e+000
  +1.49926843279e+000
  +1.58856512943e+000
  +1.68318035333e+000
  +1.78343087693e+000
  +1.88965233969e+000
  +2.00220037182e+000
  +2.12145178491e+000
  +2.24780583355e+000
  +2.38168555198e+000
  +2.52353917043e+000
  +2.67384161584e+000
  +2.83309610184e+000
  +3.00183581358e+000
  +3.18062569279e+000
  +3.37006432927e+000
  +3.57078596490e+000
  +3.78346261713e+000
  +4.00880632890e+000
  +4.24757155254e+000
  +4.50055767570e+000
  +4.76861169771e+000
  +5.05263106534e+000
  +5.35356667741e+000
  +5.67242606849e+000
  +6.01027678207e+000
  +6.36824994472e+000
  +6.74754405311e+000
  +7.14942898660e+000
  +7.57525025877e+000
  +8.02643352226e+000
  +8.50448934180e+000
  +9.01101825167e+000
  +9.54771611421e+000
  +1.01163797977e+001
  +1.07189131921e+001
  +1.13573335834e+001
  +1.20337784078e+001
  +1.27505124071e+001
  +1.35099352120e+001
  +1.43145893752e+001
  +1.51671688847e+001
  +1.60705281826e+001
  +1.70276917223e+001
  +1.80418640939e+001
  +1.91164407539e+001
  +2.02550193923e+001
  +2.14614119786e+001
  +2.27396575236e+001
  +2.40940356024e+001
  +2.55290806824e+001
  +2.70495973046e+001
  +2.86606761695e+001
  +3.03677111804e+001
  +3.21764175025e+001
  +3.40928506975e+001
  +3.61234269971e+001
  +3.82749447852e+001
  +4.05546073584e+001
  +4.29700470432e+001
  +4.55293507487e+001
  +4.82410870417e+001
  +5.11143348344e+001
  +5.41587137808e+001
  +5.73844164830e+001
  +6.08022426165e+001
  +6.44236350872e+001
  +6.82607183427e+001
  +7.23263389648e+001
  +7.66341086801e+001
  +8.11984499318e+001
  +8.60346441668e+001
  +9.11588829975e+001
  +9.65883224116e+001
  +1.02341140211e+002
  +1.08436596869e+002
  +1.14895100019e+002
  +1.21738272774e+002
  +1.28989026125e+002
  +1.36671635646e+002
  +1.44811822767e+002
  +1.53436840893e+002
  +1.62575566644e+002
  +1.72258596540e+002
  +1.82518349432e+002
  +1.93389175046e+002
  +2.04907468982e+002
  +2.17111794569e+002
  +2.30043011977e+002
  +2.43744415012e+002
  +2.58261876068e+002
  +2.73643999707e+002
  +2.89942285388e+002
  +3.07211299886e+002
  +3.25508859984e+002
  +3.44896226041e+002
  +3.65438307096e+002
  +3.87203878181e+002
  +4.10265810583e+002
  +4.34701315813e+002
  +4.60592204115e+002
  +4.88025158365e+002
  +5.17092024290e+002
  +5.47890117959e+002
  +5.80522551609e+002
  +6.15098578858e+002
  +6.51733960488e+002
  +6.90551352016e+002
  +7.31680714343e+002
  +7.75259748863e+002
  +8.21434358492e+002
  +8.70359136149e+002
  +9.22197882333e+002
  +9.77124153535e+002
  +1.03532184330e+003
  +1.09698579789e+003
  +1.16232246868e+003
  +1.23155060329e+003
  +1.30490197801e+003
  +1.38262217376e+003
  +1.46497139831e+003
  +1.55222535743e+003
  +1.64467617799e+003
  +1.74263338601e+003
  +1.84642494290e+003
  +1.95639834352e+003
  +2.07292177960e+003
  +2.19638537242e+003
  +2.32720247896e+003
  +2.46581107582e+003
  +2.61267522556e+003
  +2.76828663039e+003
  +2.93316627839e+003
  +3.10786618778e+003
  +3.29297125510e+003
  +3.48910121341e+003
  +3.69691270720e+003
  +3.91710149081e+003
  +4.15040475785e+003
  +4.39760360930e+003
  +4.65952566866e+003
  +4.93704785284e+003
  +5.23109930806e+003
  +5.54266452066e+003
  +5.87278661319e+003
  +6.22257083673e+003
  +6.59318827133e+003
  +6.98587974679e+003
  +7.40195999692e+003
  +7.84282206134e+003
  +8.30994194935e+003
  +8.80488358164e+003
  +9.32930402628e+003
  +9.88495904663e+003
  +1.04737089796e+004
  +1.10975249641e+004
  +1.17584955405e+004
  +1.24588336430e+004
  +1.32008840083e+004
  +1.39871310265e+004
  +1.48202070580e+004
  +1.57029012473e+004
  +1.66381688608e+004
  +1.76291411810e+004
  +1.86791359902e+004
  +1.97916686785e+004
  +2.09704640132e+004
  +2.22194686094e+004
  +2.35428641432e+004
  +2.49450813523e+004
  +2.64308148697e+004
  +2.80050389418e+004
  +2.96730240819e+004
  +3.14403547159e+004
  +3.33129478793e+004
  +3.52970730273e+004
  +3.73993730248e+004
  +3.96268863870e+004
  +4.19870708444e+004
  +4.44878283113e+004
  +4.71375313412e+004
  +4.99450511586e+004
  +5.29197873596e+004
  +5.60716993821e+004
  +5.94113398497e+004
  +6.29498899022e+004
  +6.66991966303e+004
  +7.06718127393e+004
  +7.48810385759e+004
  +7.93409666580e+004
  +8.40665288562e+004
  +8.90735463861e+004
  +9.43787827778e+004
  +1.00000000000e+005
</indep>
<dep V1.i acfrequency>
  -1.66944722079e-004-j5.16214523111e-007
  -1.66944699251e-004-j5.46960366182e-007
  -1.66944673622e-004-j5.79537439743e-007
  -1.66944644849e-004-j6.14054812695e-007
  -1.66944612547e-004-j6.50628050197e-007
  -1.66944576282e-004-j6.89379600598e-007
  -1.66944535569e-004-j7.30439205421e-007
  -1.66944489862e-004-j7.73944333776e-007
  -1.66944438548e-004-j8.20040642640e-007
  -1.66944380939e-004-j8.68882464566e-007
  -1.66944316263e-004-j9.20633324441e-007
  -1.66944243654e-004-j9.75466487036e-007
  -1.66944162138e-004-j1.03356553717e-006
  -1.66944070623e-004-j1.09512499445e-006
  -1.66943967881e-004-j1.16035096462e-006
  -1.66943852537e-004-j1.22946182975e-006
  -1.66943723044e-004-j1.30268897952e-006
  -1.66943577666e-004-j1.38027758610e-006
  -1.66943414454e-004-j1.46248742521e-006
  -1.66943231222e-004-j1.54959374609e-006
  -1.66943025514e-004-j1.64188819337e-006
  -1.66942794571e-004-j1.73967978383e-006
  -1.66942535299e-004-j1.84329594146e-006
  -1.66942244223e-004-j1.95308359417e-006
  -1.66941917442e-004-j2.06941033589e-006
  -1.66941550574e-004-j2.19266565808e-006
  -1.66941138704e-004-j2.32326225456e-006
  -1.66940676311e-004-j2.46163740424e-006
  -1.66940157197e-004-j2.60825443639e-006
  -1.66939574404e-004-j2.76360428332e-006
  -1.66938920122e-004-j2.92820712574e-006
  -1.66938185580e-004-j3.10261413642e-006
  -1.66937360933e-004-j3.28740932793e-006
  -1.66936435129e-004-j3.48321151091e-006
  -1.66935395759e-004-j3.69067636926e-006
  -1.66934228891e-004-j3.91049865953e-006
  -1.66932918886e-004-j4.14341454189e-006
  -1.66931448185e-004-j4.39020405066e-006
  -1.66929797077e-004-j4.65169371278e-006
  -1.66927943431e-004-j4.92875932333e-006
  -1.66925862403e-004-j5.22232888757e-006
  -1.66923526098e-004-j5.53338573956e-006
  -1.66920903205e-004-j5.86297184831e-006
  -1.66917958567e-004-j6.21219132289e-006
  -1.66914652715e-004-j6.58221412868e-006
  -1.66910941343e-004-j6.97428002788e-006
  -1.66906774703e-004-j7.38970275812e-006
  -1.66902096951e-004-j7.82987446400e-006
  -1.66896845388e-004-j8.29627039755e-006
  -1.66890949626e-004-j8.79045390421e-006
  -1.66884330642e-004-j9.31408171287e-006
  -1.66876899721e-004-j9.86890954898e-006
  -1.66868557263e-004-j1.04567980918e-005
  -1.66859191450e-004-j1.10797192978e-005
  -1.66848676750e-004-j1.17397631150e-005
  -1.66836872231e-004-j1.24391446127e-005
  -1.66823619671e-004-j1.31802115562e-005
  -1.66808741441e-004-j1.39654524553e-005
  -1.66792038122e-004-j1.47975051198e-005
  -1.66773285831e-004-j1.56791657573e-005
  -1.66752233222e-004-j1.66133986523e-005
  -1.66728598117e-004-j1.76033464676e-005
  -1.66702063721e-004-j1.86523412149e-005
  -1.66672274379e-004-j1.97639159441e-005
  -1.66638830804e-004-j2.09418172076e-005
  -1.66601284730e-004-j2.21900183597e-005
  -1.66559132900e-004-j2.35127337584e-005
  -1.66511810321e-004-j2.49144339462e-005
  -1.66458682686e-004-j2.63998618905e-005
  -1.66399037879e-004-j2.79740503792e-005
  -1.66332076419e-004-j2.96423406740e-005
  -1.66256900750e-004-j3.14104025401e-005
  -1.66172503203e-004-j3.32842557839e-005
  -1.66077752489e-004-j3.52702934485e-005
  -1.65971378531e-004-j3.73753068393e-005
  -1.65851955433e-004-j3.96065125712e-005
  -1.65717882367e-004-j4.19715818631e-005
  -1.65567362103e-004-j4.44786723331e-005
  -1.65398376917e-004-j4.71364625886e-005
  -1.65208661526e-004-j4.99541899533e-005
  -1.64995672720e-004-j5.29416917224e-005
  -1.64756555253e-004-j5.61094504053e-005
  -1.64488103553e-004-j5.94686434887e-005
  -1.64186718736e-004-j6.30311983434e-005
  -1.63848360340e-004-j6.68098530054e-005
  -1.63468492136e-004-j7.08182236881e-005
  -1.63042021303e-004-j7.50708800360e-005
  -1.62563230126e-004-j7.95834293116e-005
  -1.62025699332e-004-j8.43726109249e-005
  -1.61422222026e-004-j8.94564029784e-005
  -1.60744707085e-004-j9.48541428132e-005
  -1.59984070737e-004-j1.00586663925e-004
  -1.59130114872e-004-j1.06676452076e-004
  -1.58171390516e-004-j1.13147823987e-004
  -1.57095044660e-004-j1.20027132671e-004
  -1.55886648478e-004-j1.27343004293e-004
  -1.54530004738e-004-j1.35126612449e-004
  -1.53006931989e-004-j1.43411996994e-004
  -1.51297022861e-004-j1.52236436069e-004
  -1.49377373603e-004-j1.61640881844e-004
  -1.47222281741e-004-j1.71670472833e-004
  -1.44802908558e-004-j1.82375138523e-004
  -1.42086902986e-004-j1.93810315656e-004
  -1.39037983482e-004-j2.06037800068e-004
  -1.35615474652e-004-j2.19126763683e-004
  -1.31773795887e-004-j2.33154973497e-004
  -1.27461900232e-004-j2.48210258622e-004
  -1.22622663438e-004-j2.64392283261e-004
  -1.17192225980e-004-j2.81814698635e-004
  -1.11099295408e-004-j3.00607766551e-004
  -1.04264423616e-004-j3.20921572801e-004
  -9.65992848673e-005-j3.42929981952e-004
  -8.80059978133e-005-j3.66835528930e-004
  -7.83765616223e-005-j3.92875500638e-004
  -6.75925177901e-005-j4.21329537551e-004
  -5.55250132844e-005-j4.52529187201e-004
  -4.20355401031e-005-j4.86869977390e-004
  -2.69777813225e-005-j5.24826758044e-004
  -1.02012368150e-005-j5.66973301210e-004
  +8.44231427012e-006-j6.14007465628e-004
  +2.90878464022e-005-j6.66783642978e-004
  +5.18389689212e-005-j7.26354717931e-004
  +7.67384272637e-005-j7.94026380077e-004
  +1.03720425289e-004-j8.71427241409e-004
  +1.32533773087e-004-j9.60598591186e-004
  +1.62618009249e-004-j1.06410712398e-003
  +1.92903522218e-004-j1.18518108642e-003
  +2.21489001587e-004-j1.32786152714e-003
  +2.45122702869e-004-j1.49713801328e-003
  +2.58377565744e-004-j1.69898594895e-003
  +2.52374782455e-004-j1.94010795012e-003
  +2.12924582761e-004-j2.22694816675e-003
  +1.18172215709e-004-j2.56313092884e-003
  -6.33477188924e-005-j2.94393220427e-003
  -3.71264825320e-004-j3.34640483621e-003
  -8.42174280900e-004-j3.71668867401e-003
  -1.48208339332e-003-j3.96544481837e-003
  -2.23128453000e-003-j3.99344911441e-003
  -2.96155591047e-003-j3.75305845822e-003
  -3.53752490452e-003-j3.29417362515e-003
  -3.89325261203e-003-j2.73439936750e-003
  -4.04626141165e-003-j2.18511055083e-003
  -4.05583145408e-003-j1.70915952020e-003
  -3.98176906189e-003-j1.32468243612e-003
  -3.86745922671e-003-j1.02530798261e-003
  -3.73943014244e-003-j7.96058196112e-004
  -3.61215498381e-003-j6.21389586623e-004
  -3.49271834156e-003-j4.88111237437e-004
  -3.38404624684e-003-j3.85914180391e-004
  -3.28686239393e-003-j3.07034108639e-004
  -3.20079610791e-003-j2.45712434462e-004
  -3.12498491939e-003-j1.97695601815e-004
  -3.05839158810e-003-j1.59835359531e-004
  -2.99996436317e-003-j1.29789030739e-004
  -2.94871283634e-003-j1.05800977174e-004
  -2.90373920387e-003-j8.65450702890e-005
  -2.86424659394e-003-j7.10114283171e-005
  -2.82953613183e-003-j5.84247842700e-005
  -2.79899896185e-003-j4.81853419177e-005
  -2.77210647700e-003-j3.98256302304e-005
  -2.74840039870e-003-j3.29787850942e-005
  -2.72748348288e-003-j2.73550419614e-005
  -2.70901116927e-003-j2.27241702691e-005
  -2.69268425366e-003-j1.89022407316e-005
  -2.67824254559e-003-j1.57415775157e-005
  -2.66545942288e-003-j1.31230703332e-005
  -2.65413717606e-003-j1.09502491241e-005
  -2.64410303624e-003-j9.14468547894e-006
  -2.63520578721e-003-j7.64240029197e-006
  -2.62731287402e-003-j6.39104013796e-006
  -2.62030793196e-003-j5.34764503724e-006
  -2.61408867085e-003-j4.47687422317e-006
  -2.60856505982e-003-j3.74958886385e-006
  -2.60365776630e-003-j3.14171465687e-006
  -2.59929681048e-003-j2.63332510676e-006
  -2.59542040275e-003-j2.20789974128e-006
  -2.59197393691e-003-j1.85172169851e-006
  -2.58890911632e-003-j1.55338686701e-006
  -2.58618319376e-003-j1.30340270214e-006
  -2.58375830892e-003-j1.09385942314e-006
  -2.58160090987e-003-j9.18159849553e-007
  -2.57968124684e-003-j7.70796908345e-007
  -2.57797292871e-003-j6.47170017740e-007
  -2.57645253370e-003-j5.43433268382e-007
  -2.57509926722e-003-j4.56369681019e-007
  -2.57389466078e-003-j3.83286901181e-007
  -2.57282230663e-003-j3.21930555940e-007
  -2.57186762383e-003-j2.70412191938e-007
  -2.57101765154e-003-j2.27149273309e-007
  -2.57026086648e-003-j1.90815170698e-007
  -2.56958702144e-003-j1.60297439855e-007
  -2.56898700230e-003-j1.34662987429e-007
  -2.56845270149e-003-j1.13128965807e-007
  -2.56797690579e-003-j9.50384388551e-008
  -2.56755319685e-003-j7.98400246079e-008
  -2.56717586294e-003-j6.70708560305e-008
  -2.56683982066e-003-j5.63423123497e-008
  -2.56654054541e-003-j4.73280654578e-008
  -2.56627400962e-003-j3.97540620255e-008
  -2.56603662791e-003-j3.33901250549e-008
</dep>
<dep _net0.v acfrequency>
  -2.31865039413e-013-j1.07672303913e-009
  -2.60307413991e-013-j1.14085286724e-009
  -2.92238753009e-013-j1.20880228146e-009
  -3.28087040403e-013-j1.28079877743e-009
  -3.68332760058e-013-j1.35708340052e-009
  -4.13515335894e-013-j1.43791155290e-009
  -4.64240361939e-013-j1.52355384866e-009
  -5.21187719324e-013-j1.61429701980e-009
  -5.85120688967e-013-j1.71044487632e-009
  -6.56896182120e-013-j1.81231932336e-009
  -7.37476225888e-013-j1.92026143897e-009
  -8.27940857671e-013-j2.03463261617e-009
  -9.29502601377e-013-j2.15581577286e-009
  -1.04352271943e-012-j2.28421663398e-009
  -1.17152945845e-012-j2.42026508994e-009
  -1.31523853309e-012-j2.56441663599e-009
  -1.47657612276e-012-j2.71715389736e-009
  -1.65770468927e-012-j2.87898824521e-009
  -1.86105196175e-012-j3.05046150892e-009
  -2.08934347709e-012-j3.23214779033e-009
  -2.34563911234e-012-j3.42465538606e-009
  -2.63337409865e-012-j3.62862882440e-009
  -2.95640506667e-012-j3.84475102355e-009
  -3.31906174057e-012-j4.07374557845e-009
  -3.72620497377e-012-j4.31637918384e-009
  -4.18329190441e-012-j4.57346420180e-009
  -4.69644910413e-012-j4.84586138218e-009
  -5.27255470072e-012-j5.13448274526e-009
  -5.91933057597e-012-j5.44029463618e-009
  -6.64544587473e-012-j5.76432096145e-009
  -7.46063321315e-012-j6.10764661836e-009
  -8.37581914454e-012-j6.47142112890e-009
  -9.40327063224e-012-j6.85686249034e-009
  -1.05567594941e-011-j7.26526125546e-009
  -1.18517470237e-011-j7.69798485606e-009
  -1.33055912657e-011-j8.15648218450e-009
  -1.49377797242e-011-j8.64228844853e-009
  -1.67701906276e-011-j9.15703031589e-009
  -1.88273862553e-011-j9.70243136595e-009
  -2.11369422605e-011-j1.02803178669e-008
  -2.37298174126e-011-j1.08926248982e-008
  -2.66407687190e-011-j1.15414028383e-008
  -2.99088175011e-011-j1.22288242408e-008
  -3.35777726836e-011-j1.29571911213e-008
  -3.76968183252e-011-j1.37289426804e-008
  -4.23211732842e-011-j1.45466634892e-008
  -4.75128318848e-011-j1.54130921645e-008
  -5.33413955408e-011-j1.63311305648e-008
  -5.98850065215e-011-j1.73038535367e-008
  -6.72313964217e-011-j1.83345192481e-008
  -7.54790634490e-011-j1.94265801406e-008
  -8.47385943836e-011-j2.05836945420e-008
  -9.51341490235e-011-j2.18097389780e-008
  -1.06805127131e-010-j2.31088212259e-008
  -1.19908040376e-010-j2.44852941574e-008
  -1.34618614549e-010-j2.59437704188e-008
  -1.51134150477e-010-j2.74891380011e-008
  -1.69676175562e-010-j2.91265767563e-008
  -1.90493421891e-010-j3.08615759191e-008
  -2.13865171291e-010-j3.26999526987e-008
  -2.40105012787e-010-j3.46478720091e-008
  -2.69565063568e-010-j3.67118674117e-008
  -3.02640711022e-010-j3.88988633498e-008
  -3.39775940589e-010-j4.12161987594e-008
  -3.81469322392e-010-j4.36716521492e-008
  -4.28280738793e-010-j4.62734682486e-008
  -4.80838945501e-010-j4.90303863319e-008
  -5.39850070614e-010-j5.19516703341e-008
  -6.06107169405e-010-j5.50471408861e-008
  -6.80500967762e-010-j5.83272094070e-008
  -7.64031944454e-010-j6.18029144038e-008
  -8.57823921903e-010-j6.54859601446e-008
  -9.63139357409e-010-j6.93887578855e-008
  -1.08139655212e-009-j7.35244698519e-008
  -1.21418902397e-009-j7.79070561936e-008
  -1.36330732388e-009-j8.25513251599e-008
  -1.53076361246e-009-j8.74729867643e-008
  -1.71881935783e-009-j9.26887102438e-008
  -1.93001656532e-009-j9.82161856511e-008
  -2.16721300763e-009-j1.04074189961e-007
  -2.43362199033e-009-j1.10282658120e-007
  -2.73285726552e-009-j1.16862759522e-007
  -3.06898379601e-009-j1.23836980470e-007
  -3.44657517738e-009-j1.31229213231e-007
  -3.87077864835e-009-j1.39064852417e-007
  -4.34738876368e-009-j1.47370899505e-007
  -4.88293097431e-009-j1.56176076424e-007
  -5.48475656005e-009-j1.65510949302e-007
  -6.16115059951e-009-j1.75408063622e-007
  -6.92145494648e-009-j1.85902092214e-007
  -7.77620852313e-009-j1.97029997776e-007
  -8.73730765106e-009-j2.08831211852e-007
  -9.81818963610e-009-j2.21347832550e-007
  -1.10340434245e-008-j2.34624843618e-007
  -1.24020518804e-008-j2.48710357983e-007
  -1.39416711314e-008-j2.63655889351e-007
  -1.56749535311e-008-j2.79516656088e-007
  -1.76269221523e-008-j2.96351922345e-007
  -1.98260064113e-008-j3.14225382216e-007
  -2.23045505385e-008-j3.33205593730e-007
  -2.50994092488e-008-j3.53366470660e-007
  -2.82526482958e-008-j3.74787841476e-007
  -3.18123718074e-008-j3.97556086360e-007
  -3.58337036542e-008-j4.21764865014e-007
  -4.03799569563e-008-j4.47515950072e-007
  -4.55240346352e-008-j4.74920183228e-007
  -5.13501152943e-008-j5.04098573742e-007
  -5.79556934976e-008-j5.35183561656e-007
  -6.54540628336e-008-j5.68320470704e-007
  -7.39773555483e-008-j6.03669178228e-007
  -8.36802861153e-008-j6.41406030850e-007
  -9.47447907906e-008-j6.81726034336e-007
  -1.07385815005e-007-j7.24845342349e-007
  -1.21858581004e-007-j7.71004059135e-007
  -1.38467777273e-007-j8.20469351144e-007
  -1.57579260034e-007-j8.73538824977e-007
  -1.79635060844e-007-j9.30544061815e-007
  -2.05172774722e-007-j9.91854081288e-007
  -2.34850790275e-007-j1.05787830687e-006
  -2.69481358092e-007-j1.12906826268e-006
  -3.10074230832e-007-j1.20591665039e-006
  -3.57894616185e-007-j1.28895146715e-006
  -4.14540536883e-007-j1.37872114140e-006
  -4.82046442651e-007-j1.47576378230e-006
  -5.63022015587e-007-j1.58054868920e-006
  -6.60837182412e-007-j1.69336974882e-006
  -7.79865176353e-007-j1.81415571062e-006
  -9.25791753156e-007-j1.94213742598e-006
  -1.10598202990e-006-j2.07527082674e-006
  -1.32984720218e-006-j2.20924979140e-006
  -1.60902794754e-006-j2.33585527684e-006
  -1.95692215266e-006-j2.44031321083e-006
  -2.38649206883e-006-j2.49743702620e-006
  -2.90430878542e-006-j2.46710895432e-006
  -3.49799562484e-006-j2.29218580478e-006
  -4.11644944818e-006-j1.90715018885e-006
  -4.65354969385e-006-j1.26979188284e-006
  -4.96553982525e-006-j4.13848985351e-007
  -4.94458153300e-006+j5.23620163687e-007
  -4.59850466322e-006+j1.35883190308e-006
  -4.04443686080e-006+j1.96592043547e-006
  -3.42448714487e-006+j2.32280696928e-006
  -2.83812018809e-006+j2.47704760228e-006
  -2.33069837625e-006+j2.49427563423e-006
  -1.91141418391e-006+j2.42973813565e-006
  -1.57243072306e-006+j2.32156523652e-006
  -1.30051984917e-006+j2.19346498671e-006
  -1.08242599994e-006+j2.05925188161e-006
  -9.06768940014e-007+j1.92656263109e-006
  -7.64397253356e-007+j1.79936304530e-006
  -6.48166143272e-007+j1.67950348041e-006
  -5.52564603975e-007+j1.56764566067e-006
  -4.73353848637e-007+j1.46380340279e-006
  -4.07266045303e-007+j1.36765402131e-006
  -3.51768742029e-007+j1.27871561649e-006
  -3.04885988274e-007+j1.19644646892e-006
  -2.65064264258e-007+j1.12029936650e-006
  -2.31072422797e-007+j1.04974996258e-006
  -2.01926962757e-007+j9.84310278782e-007
  -1.76836018682e-007+j9.23533826618e-007
  -1.55157153983e-007+j8.67016120018e-007
  -1.36365353244e-007+j8.14392770758e-007
  -1.20028580802e-007+j7.65336431681e-007
  -1.05788982486e-007+j7.19553306915e-007
  -9.33483219687e-008+j6.76779627075e-007
  -8.24566156426e-008+j6.36778298961e-007
  -7.29031997945e-008+j5.99335829458e-007
  -6.45096600501e-008+j5.64259560512e-007
