<Qucs Dataset 0.0.16>
<indep acfrequency 100>
  +1.00000000000e+000
  +1.02000000000e+002
  +2.03000000000e+002
  +3.04000000000e+002
  +4.05000000000e+002
  +5.06000000000e+002
  +6.07000000000e+002
  +7.08000000000e+002
  +8.09000000000e+002
  +9.10000000000e+002
  +1.01100000000e+003
  +1.11200000000e+003
  +1.21300000000e+003
  +1.31400000000e+003
  +1.41500000000e+003
  +1.51600000000e+003
  +1.61700000000e+003
  +1.71800000000e+003
  +1.81900000000e+003
  +1.92000000000e+003
  +2.02100000000e+003
  +2.12200000000e+003
  +2.22300000000e+003
  +2.32400000000e+003
  +2.42500000000e+003
  +2.52600000000e+003
  +2.62700000000e+003
  +2.72800000000e+003
  +2.82900000000e+003
  +2.93000000000e+003
  +3.03100000000e+003
  +3.13200000000e+003
  +3.23300000000e+003
  +3.33400000000e+003
  +3.43500000000e+003
  +3.53600000000e+003
  +3.63700000000e+003
  +3.73800000000e+003
  +3.83900000000e+003
  +3.94000000000e+003
  +4.04100000000e+003
  +4.14200000000e+003
  +4.24300000000e+003
  +4.34400000000e+003
  +4.44500000000e+003
  +4.54600000000e+003
  +4.64700000000e+003
  +4.74800000000e+003
  +4.84900000000e+003
  +4.95000000000e+003
  +5.05100000000e+003
  +5.15200000000e+003
  +5.25300000000e+003
  +5.35400000000e+003
  +5.45500000000e+003
  +5.55600000000e+003
  +5.65700000000e+003
  +5.75800000000e+003
  +5.85900000000e+003
  +5.96000000000e+003
  +6.06100000000e+003
  +6.16200000000e+003
  +6.26300000000e+003
  +6.36400000000e+003
  +6.46500000000e+003
  +6.56600000000e+003
  +6.66700000000e+003
  +6.76800000000e+003
  +6.86900000000e+003
  +6.97000000000e+003
  +7.07100000000e+003
  +7.17200000000e+003
  +7.27300000000e+003
  +7.37400000000e+003
  +7.47500000000e+003
  +7.57600000000e+003
  +7.67700000000e+003
  +7.77800000000e+003
  +7.87900000000e+003
  +7.98000000000e+003
  +8.08100000000e+003
  +8.18200000000e+003
  +8.28300000000e+003
  +8.38400000000e+003
  +8.48500000000e+003
  +8.58600000000e+003
  +8.68700000000e+003
  +8.78800000000e+003
  +8.88900000000e+003
  +8.99000000000e+003
  +9.09100000000e+003
  +9.19200000000e+003
  +9.29300000000e+003
  +9.39400000000e+003
  +9.49500000000e+003
  +9.59600000000e+003
  +9.69700000000e+003
  +9.79800000000e+003
  +9.89900000000e+003
  +1.00000000000e+004
</indep>
<dep Phase acfrequency>
  -7.91052686538e-003
  -8.06820412082e-001
  -1.60541668921e+000
  -2.40338955674e+000
  -3.20043066327e+000
  -3.99623381848e+000
  -4.79049569149e+000
  -5.58291649297e+000
  -6.37320063691e+000
  -7.16105737869e+000
  -7.94620142617e+000
  -8.72835352061e+000
  -9.50724098485e+000
  -1.02825982363e+001
  -1.10541672628e+001
  -1.18216980592e+001
  -1.25849490240e+001
  -1.33436873144e+001
  -1.40976891600e+001
  -1.48467401334e+001
  -1.55906353793e+001
  -1.63291798015e+001
  -1.70621882092e+001
  -1.77894854219e+001
  -1.85109063371e+001
  -1.92262959584e+001
  -1.99355093890e+001
  -2.06384117900e+001
  -2.13348783073e+001
  -2.20247939671e+001
  -2.27080535443e+001
  -2.33845614039e+001
  -2.40542313192e+001
  -2.47169862686e+001
  -2.53727582125e+001
  -2.60214878535e+001
  -2.66631243817e+001
  -2.72976252070e+001
  -2.79249556805e+001
  -2.85450888074e+001
  -2.91580049527e+001
  -2.97636915418e+001
  -3.03621427572e+001
  -3.09533592338e+001
  -3.15373477532e+001
  -3.21141209388e+001
  -3.26836969531e+001
  -3.32460991977e+001
  -3.38013560179e+001
  -3.43495004117e+001
  -3.48905697450e+001
  -3.54246054729e+001
  -3.59516528681e+001
  -3.64717607571e+001
  -3.69849812639e+001
  -3.74913695624e+001
  -3.79909836369e+001
  -3.84838840520e+001
  -3.89701337304e+001
  -3.94497977412e+001
  -3.99229430952e+001
  -4.03896385513e+001
  -4.08499544302e+001
  -4.13039624381e+001
  -4.17517354981e+001
  -4.21933475913e+001
  -4.26288736053e+001
  -4.30583891916e+001
  -4.34819706307e+001
  -4.38996947048e+001
  -4.43116385786e+001
  -4.47178796868e+001
  -4.51184956291e+001
  -4.55135640712e+001
  -4.59031626535e+001
  -4.62873689049e+001
  -4.66662601633e+001
  -4.70399135013e+001
  -4.74084056578e+001
  -4.77718129748e+001
  -4.81302113386e+001
  -4.84836761262e+001
  -4.88322821561e+001
  -4.91761036435e+001
  -4.95152141586e+001
  -4.98496865901e+001
  -5.01795931111e+001
  -5.05050051492e+001
  -5.08259933587e+001
  -5.11426275974e+001
  -5.14549769044e+001
  -5.17631094821e+001
  -5.20670926797e+001
  -5.23669929792e+001
  -5.26628759839e+001
  -5.29548064084e+001
  -5.32428480712e+001
  -5.35270638880e+001
  -5.38075158677e+001
  -5.40842651093e+001
</dep>
<dep Ampl acfrequency>
  -1.90880516514e-002
  -1.99491750794e-002
  -2.24981027475e-002
  -2.67318651904e-002
  -3.26455391084e-002
  -4.02322664058e-002
  -4.94832805969e-002
  -6.03879403676e-002
  -7.29337700248e-002
  -8.71065065135e-002
  -1.02890152634e-001
  -1.20267036047e-001
  -1.39217873628e-001
  -1.59721840672e-001
  -1.81756644473e-001
  -2.05298601721e-001
  -2.30322719205e-001
  -2.56802777264e-001
  -2.84711415436e-001
  -3.14020219769e-001
  -3.44699811262e-001
  -3.76719934907e-001
  -4.10049548839e-001
  -4.44656913115e-001
  -4.80509677667e-001
  -5.17574969017e-001
  -5.55819475342e-001
  -5.95209529562e-001
  -6.35711190097e-001
  -6.77290319023e-001
  -7.19912657377e-001
  -7.63543897383e-001
  -8.08149751420e-001
  -8.53696017596e-001
  -9.00148641794e-001
  -9.47473776125e-001
  -9.95637833716e-001
  -1.04460753982e+000
  -1.09434997924e+000
  -1.14483264010e+000
  -1.19602345396e+000
  -1.24789083244e+000
  -1.30040370031e+000
  -1.35353152521e+000
  -1.40724434413e+000
  -1.46151278668e+000
  -1.51630809534e+000
  -1.57160214287e+000
  -1.62736744687e+000
  -1.68357718179e+000
  -1.74020518845e+000
  -1.79722598122e+000
  -1.85461475302e+000
  -1.91234737832e+000
  -1.97040041421e+000
  -2.02875109973e+000
  -2.08737735359e+000
  -2.14625777041e+000
  -2.20537161558e+000
  -2.26469881892e+000
  -2.32421996722e+000
  -2.38391629577e+000
  -2.44376967898e+000
  -2.50376262027e+000
  -2.56387824119e+000
  -2.62410026996e+000
  -2.68441302954e+000
  -2.74480142517e+000
  -2.80525093159e+000
  -2.86574757998e+000
  -2.92627794463e+000
  -2.98682912941e+000
  -3.04738875420e+000
  -3.10794494112e+000
  -3.16848630088e+000
  -3.22900191899e+000
  -3.28948134213e+000
  -3.34991456457e+000
  -3.41029201464e+000
  -3.47060454143e+000
  -3.53084340163e+000
  -3.59100024647e+000
  -3.65106710899e+000
  -3.71103639143e+000
  -3.77090085290e+000
  -3.83065359727e+000
  -3.89028806132e+000
  -3.94979800315e+000
  -4.00917749090e+000
  -4.06842089163e+000
  -4.12752286060e+000
  -4.18647833079e+000
  -4.24528250262e+000
  -4.30393083409e+000
  -4.36241903108e+000
  -4.42074303800e+000
  -4.47889902870e+000
  -4.53688339762e+000
  -4.59469275124e+000
  -4.65232389984e+000
</dep>
<dep V5.i acfrequency>
  +4.16657986292e-004+j1.70625780333e-014
  +4.16657986316e-004+j1.74003790154e-012
  +4.16657986389e-004+j3.46098467486e-012
  +4.16657986509e-004+j5.17790212388e-012
  +4.16657986677e-004+j6.88880508330e-012
  +4.16657986892e-004+j8.59173160372e-012
  +4.16657987154e-004+j1.02847503711e-011
  +4.16657987462e-004+j1.19659678803e-011
  +4.16657987815e-004+j1.36335353084e-011
  +4.16657988212e-004+j1.52856550359e-011
  +4.16657988654e-004+j1.69205867709e-011
  +4.16657989138e-004+j1.85366532342e-011
  +4.16657989664e-004+j2.01322453710e-011
  +4.16657990230e-004+j2.17058270594e-011
  +4.16657990835e-004+j2.32559392923e-011
  +4.16657991479e-004+j2.47812038160e-011
  +4.16657992159e-004+j2.62803262155e-011
  +4.16657992875e-004+j2.77520984409e-011
  +4.16657993624e-004+j2.91954007760e-011
  +4.16657994406e-004+j3.06092032581e-011
  +4.16657995219e-004+j3.19925665585e-011
  +4.16657996061e-004+j3.33446423426e-011
  +4.16657996931e-004+j3.46646731306e-011
  +4.16657997828e-004+j3.59519916825e-011
  +4.16657998749e-004+j3.72060199378e-011
  +4.16657999693e-004+j3.84262675401e-011
  +4.16658000660e-004+j3.96123299781e-011
  +4.16658001646e-004+j4.07638863814e-011
  +4.16658002650e-004+j4.18806970026e-011
  +4.16658003672e-004+j4.29626004252e-011
  +4.16658004709e-004+j4.40095105320e-011
  +4.16658005761e-004+j4.50214132706e-011
  +4.16658006824e-004+j4.59983632506e-011
  +4.16658007900e-004+j4.69404802070e-011
  +4.16658008985e-004+j4.78479453626e-011
  +4.16658010078e-004+j4.87209977200e-011
  +4.16658011179e-004+j4.95599303123e-011
  +4.16658012285e-004+j5.03650864405e-011
  +4.16658013397e-004+j5.11368559209e-011
  +4.16658014512e-004+j5.18756713674e-011
  +4.16658015629e-004+j5.25820045279e-011
  +4.16658016748e-004+j5.32563626936e-011
  +4.16658017868e-004+j5.38992851966e-011
  +4.16658018986e-004+j5.45113400117e-011
  +4.16658020103e-004+j5.50931204725e-011
  +4.16658021218e-004+j5.56452421115e-011
  +4.16658022330e-004+j5.61683396347e-011
  +4.16658023437e-004+j5.66630640339e-011
  +4.16658024540e-004+j5.71300798437e-011
  +4.16658025638e-004+j5.75700625448e-011
  +4.16658026729e-004+j5.79836961163e-011
  +4.16658027814e-004+j5.83716707371e-011
  +4.16658028891e-004+j5.87346806357e-011
  +4.16658029960e-004+j5.90734220875e-011
  +4.16658031022e-004+j5.93885915558e-011
  +4.16658032074e-004+j5.96808839747e-011
  +4.16658033117e-004+j5.99509911692e-011
  +4.16658034151e-004+j6.01996004088e-011
  +4.16658035175e-004+j6.04273930888e-011
  +4.16658036188e-004+j6.06350435354e-011
  +4.16658037191e-004+j6.08232179278e-011
  +4.16658038184e-004+j6.09925733335e-011
  +4.16658039165e-004+j6.11437568491e-011
  +4.16658040135e-004+j6.12774048425e-011
  +4.16658041094e-004+j6.13941422893e-011
  +4.16658042041e-004+j6.14945821990e-011
  +4.16658042977e-004+j6.15793251245e-011
  +4.16658043900e-004+j6.16489587492e-011
  +4.16658044812e-004+j6.17040575470e-011
  +4.16658045712e-004+j6.17451825092e-011
  +4.16658046601e-004+j6.17728809338e-011
  +4.16658047477e-004+j6.17876862717e-011
  +4.16658048341e-004+j6.17901180256e-011
  +4.16658049193e-004+j6.17806816974e-011
  +4.16658050033e-004+j6.17598687784e-011
  +4.16658050861e-004+j6.17281567802e-011
  +4.16658051677e-004+j6.16860093013e-011
  +4.16658052482e-004+j6.16338761255e-011
  +4.16658053274e-004+j6.15721933503e-011
  +4.16658054055e-004+j6.15013835403e-011
  +4.16658054824e-004+j6.14218559038e-011
  +4.16658055581e-004+j6.13340064891e-011
  +4.16658056327e-004+j6.12382183995e-011
  +4.16658057061e-004+j6.11348620220e-011
  +4.16658057784e-004+j6.10242952698e-011
  +4.16658058496e-004+j6.09068638359e-011
  +4.16658059197e-004+j6.07829014553e-011
  +4.16658059886e-004+j6.06527301752e-011
  +4.16658060565e-004+j6.05166606301e-011
  +4.16658061233e-004+j6.03749923227e-011
  +4.16658061891e-004+j6.02280139065e-011
  +4.16658062538e-004+j6.00760034715e-011
  +4.16658063175e-004+j5.99192288301e-011
  +4.16658063801e-004+j5.97579478029e-011
  +4.16658064418e-004+j5.95924085048e-011
  +4.16658065024e-004+j5.94228496272e-011
  +4.16658065621e-004+j5.92495007203e-011
  +4.16658066208e-004+j5.90725824706e-011
  +4.16658066785e-004+j5.88923069758e-011
  +4.16658067353e-004+j5.87088780158e-011
</dep>
<dep Pr5.i acfrequency>
  +2.42536063731e-018+j1.70629335037e-014
  +2.45053556195e-014+j1.74007415233e-012
  +9.70056272075e-014+j3.46105677871e-012
  +2.17334399164e-013+j5.17800999684e-012
  +3.85212101518e-013+j6.88894860008e-012
  +6.00250055051e-013+j8.59191059813e-012
  +8.61952711798e-013+j1.02849646367e-011
  +1.16972049232e-012+j1.19662171713e-011
  +1.52285318960e-012+j1.36338193404e-011
  +1.92055390382e-012+j1.52859734870e-011
  +2.36193346731e-012+j1.69209392831e-011
  +2.84601531456e-012+j1.85370394144e-011
  +3.37174074849e-012+j2.01326647928e-011
  +3.93797455160e-012+j2.17062792642e-011
  +4.54351088813e-012+j2.32564237910e-011
  +5.18707944246e-012+j2.47817200910e-011
  +5.86735173838e-012+j2.62808737223e-011
  +6.58294758380e-012+j2.77526766096e-011
  +7.33244158714e-012+j2.91960090135e-011
  +8.11436969246e-012+j3.06098409498e-011
  +8.92723568327e-012+j3.19932330703e-011
  +9.76951760740e-012+j3.33453370227e-011
  +1.06396740786e-011+j3.46653953113e-011
  +1.15361504141e-011+j3.59527406823e-011
  +1.24573845717e-011+j3.72067950633e-011
  +1.34018128526e-011+j3.84270680873e-011
  +1.43678753429e-011+j3.96131552350e-011
  +1.53540210684e-011+j4.07647356290e-011
  +1.63587128430e-011+j4.18815695171e-011
  +1.73804317956e-011+j4.29634954794e-011
  +1.84176815629e-011+j4.40104273968e-011
  +1.94689921408e-011+j4.50223512168e-011
  +2.05329233902e-011+j4.59993215498e-011
  +2.16080681964e-011+j4.69414581337e-011
  +2.26930552849e-011+j4.78489421948e-011
  +2.37865516981e-011+j4.87220127408e-011
  +2.48872649413e-011+j4.95609628109e-011
  +2.59939448083e-011+j5.03661357131e-011
  +2.71053848966e-011+j5.11379212720e-011
  +2.82204238292e-011+j5.18767521105e-011
  +2.93379461939e-011+j5.25830999864e-011
  +3.04568832183e-011+j5.32574722011e-011
  +3.15762131971e-011+j5.39004080983e-011
  +3.26949616874e-011+j5.45124756647e-011
  +3.38122014900e-011+j5.50942682458e-011
  +3.49270524354e-011+j5.56464013873e-011
  +3.60386809894e-011+j5.61695098084e-011
  +3.71462996974e-011+j5.66642445144e-011
  +3.82491664835e-011+j5.71312700537e-011
  +3.93465838200e-011+j5.75712619211e-011
  +4.04378977836e-011+j5.79849041100e-011
  +4.15224970131e-011+j5.83728868135e-011
  +4.25998115820e-011+j5.87359042749e-011
  +4.36693118005e-011+j5.90746527838e-011
  +4.47305069579e-011+j5.93898288181e-011
  +4.57829440189e-011+j5.96821273264e-011
  +4.68262062828e-011+j5.99522401482e-011
  +4.78599120168e-011+j6.02008545671e-011
  +4.88837130716e-011+j6.04286519929e-011
  +4.98972934885e-011+j6.06363067654e-011
  +5.09003681050e-011+j6.08244850782e-011
  +5.18926811653e-011+j6.09938440121e-011
  +5.28740049425e-011+j6.11450306774e-011
  +5.38441383774e-011+j6.12786814551e-011
  +5.48029057379e-011+j6.13954213339e-011
  +5.57501553052e-011+j6.14958633361e-011
  +5.66857580871e-011+j6.15806080271e-011
  +5.76096065641e-011+j6.16502431025e-011
  +5.85216134696e-011+j6.17053430482e-011
  +5.94217106060e-011+j6.17464688672e-011
  +6.03098476991e-011+j6.17741678688e-011
  +6.11859912908e-011+j6.17889735151e-011
  +6.20501236723e-011+j6.17914053197e-011
  +6.29022418578e-011+j6.17819687949e-011
  +6.37423565986e-011+j6.17611554423e-011
  +6.45704914379e-011+j6.17294427835e-011
  +6.53866818073e-011+j6.16872944265e-011
  +6.61909741623e-011+j6.16351601646e-011
  +6.69834251582e-011+j6.15734761044e-011
  +6.77641008655e-011+j6.15026648192e-011
  +6.85330760229e-011+j6.14231355258e-011
  +6.92904333286e-011+j6.13352842809e-011
  +7.00362627672e-011+j6.12394941957e-011
  +7.07706609731e-011+j6.11361356649e-011
  +7.14937306278e-011+j6.10255666093e-011
  +7.22055798899e-011+j6.09081327289e-011
  +7.29063218588e-011+j6.07841677658e-011
  +7.35960740675e-011+j6.06539937737e-011
  +7.42749580067e-011+j6.05179213939e-011
  +7.49430986763e-011+j6.03762501351e-011
  +7.56006241652e-011+j6.02292686568e-011
  +7.62476652565e-011+j6.00772550549e-011
  +7.68843550581e-011+j5.99204771473e-011
  +7.75108286574e-011+j5.97591927602e-011
  +7.81272227984e-011+j5.95936500133e-011
  +7.87336755804e-011+j5.94240876032e-011
  +7.93303261774e-011+j5.92507350849e-011
  +7.99173145773e-011+j5.90738131494e-011
  +8.04947813391e-011+j5.88935338989e-011
  +8.10628673682e-011+j5.87101011174e-011
</dep>
<dep Pr3.i acfrequency>
  -4.16657986292e-004-j1.70625780333e-014
  -4.16657986316e-004-j1.74003790154e-012
  -4.16657986389e-004-j3.46098467486e-012
  -4.16657986509e-004-j5.17790212388e-012
  -4.16657986677e-004-j6.88880508330e-012
  -4.16657986892e-004-j8.59173160372e-012
  -4.16657987154e-004-j1.02847503711e-011
  -4.16657987462e-004-j1.19659678803e-011
  -4.16657987815e-004-j1.36335353084e-011
  -4.16657988212e-004-j1.52856550359e-011
  -4.16657988654e-004-j1.69205867709e-011
  -4.16657989138e-004-j1.85366532342e-011
  -4.16657989664e-004-j2.01322453710e-011
  -4.16657990230e-004-j2.17058270594e-011
  -4.16657990835e-004-j2.32559392923e-011
  -4.16657991479e-004-j2.47812038160e-011
  -4.16657992159e-004-j2.62803262155e-011
  -4.16657992875e-004-j2.77520984409e-011
  -4.16657993624e-004-j2.91954007760e-011
  -4.16657994406e-004-j3.06092032581e-011
  -4.16657995219e-004-j3.19925665585e-011
  -4.16657996061e-004-j3.33446423426e-011
  -4.16657996931e-004-j3.46646731306e-011
  -4.16657997828e-004-j3.59519916825e-011
  -4.16657998749e-004-j3.72060199378e-011
  -4.16657999693e-004-j3.84262675401e-011
  -4.16658000660e-004-j3.96123299781e-011
  -4.16658001646e-004-j4.07638863814e-011
  -4.16658002650e-004-j4.18806970026e-011
  -4.16658003672e-004-j4.29626004252e-011
  -4.16658004709e-004-j4.40095105320e-011
  -4.16658005761e-004-j4.50214132706e-011
  -4.16658006824e-004-j4.59983632506e-011
  -4.16658007900e-004-j4.69404802070e-011
  -4.16658008985e-004-j4.78479453626e-011
  -4.16658010078e-004-j4.87209977200e-011
  -4.16658011179e-004-j4.95599303123e-011
  -4.16658012285e-004-j5.03650864405e-011
  -4.16658013397e-004-j5.11368559209e-011
  -4.16658014512e-004-j5.18756713674e-011
  -4.16658015629e-004-j5.25820045279e-011
  -4.16658016748e-004-j5.32563626936e-011
  -4.16658017868e-004-j5.38992851966e-011
  -4.16658018986e-004-j5.45113400117e-011
  -4.16658020103e-004-j5.50931204725e-011
  -4.16658021218e-004-j5.56452421115e-011
  -4.16658022330e-004-j5.61683396347e-011
  -4.16658023437e-004-j5.66630640339e-011
  -4.16658024540e-004-j5.71300798437e-011
  -4.16658025638e-004-j5.75700625448e-011
  -4.16658026729e-004-j5.79836961163e-011
  -4.16658027814e-004-j5.83716707371e-011
  -4.16658028891e-004-j5.87346806357e-011
  -4.16658029960e-004-j5.90734220875e-011
  -4.16658031022e-004-j5.93885915558e-011
  -4.16658032074e-004-j5.96808839747e-011
  -4.16658033117e-004-j5.99509911692e-011
  -4.16658034151e-004-j6.01996004088e-011
  -4.16658035175e-004-j6.04273930888e-011
  -4.16658036188e-004-j6.06350435354e-011
  -4.16658037191e-004-j6.08232179278e-011
  -4.16658038184e-004-j6.09925733335e-011
  -4.16658039165e-004-j6.11437568491e-011
  -4.16658040135e-004-j6.12774048425e-011
  -4.16658041094e-004-j6.13941422893e-011
  -4.16658042041e-004-j6.14945821990e-011
  -4.16658042977e-004-j6.15793251245e-011
  -4.16658043900e-004-j6.16489587492e-011
  -4.16658044812e-004-j6.17040575470e-011
  -4.16658045712e-004-j6.17451825092e-011
  -4.16658046601e-004-j6.17728809338e-011
  -4.16658047477e-004-j6.17876862717e-011
  -4.16658048341e-004-j6.17901180256e-011
  -4.16658049193e-004-j6.17806816974e-011
  -4.16658050033e-004-j6.17598687784e-011
  -4.16658050861e-004-j6.17281567802e-011
  -4.16658051677e-004-j6.16860093013e-011
  -4.16658052482e-004-j6.16338761255e-011
  -4.16658053274e-004-j6.15721933503e-011
  -4.16658054055e-004-j6.15013835403e-011
  -4.16658054824e-004-j6.14218559038e-011
  -4.16658055581e-004-j6.13340064891e-011
  -4.16658056327e-004-j6.12382183995e-011
  -4.16658057061e-004-j6.11348620220e-011
  -4.16658057784e-004-j6.10242952698e-011
  -4.16658058496e-004-j6.09068638359e-011
  -4.16658059197e-004-j6.07829014553e-011
  -4.16658059886e-004-j6.06527301752e-011
  -4.16658060565e-004-j6.05166606301e-011
  -4.16658061233e-004-j6.03749923227e-011
  -4.16658061891e-004-j6.02280139065e-011
  -4.16658062538e-004-j6.00760034715e-011
  -4.16658063175e-004-j5.99192288301e-011
  -4.16658063801e-004-j5.97579478029e-011
  -4.16658064418e-004-j5.95924085048e-011
  -4.16658065024e-004-j5.94228496272e-011
  -4.16658065621e-004-j5.92495007203e-011
  -4.16658066208e-004-j5.90725824706e-011
  -4.16658066785e-004-j5.88923069758e-011
  -4.16658067353e-004-j5.87088780158e-011
</dep>
<dep Pr4.i acfrequency>
  -3.86054234526e-014-j6.26885963803e-014
  -1.28626417435e-013-j6.39296910083e-012
  -3.94984213967e-013-j1.27157967861e-011
  -8.37058510459e-013-j1.90238208813e-011
  -1.45382219847e-012-j2.53097479618e-011
  -2.24384731450e-012-j3.15663698971e-011
  -3.20531327140e-012-j3.77865911101e-011
  -4.33601728213e-012-j4.39634549325e-011
  -5.63338686531e-012-j5.00901688561e-011
  -7.09449430116e-012-j5.61601284929e-011
  -8.71607288828e-012-j6.21669400738e-011
  -1.04945348354e-011-j6.81044413367e-011
  -1.24259906092e-011-j7.39667206732e-011
