<Qucs Dataset 0.0.16>
<indep acfrequency 100>
  +1.00000000000e+000
  +1.02000000000e+002
  +2.03000000000e+002
  +3.04000000000e+002
  +4.05000000000e+002
  +5.06000000000e+002
  +6.07000000000e+002
  +7.08000000000e+002
  +8.09000000000e+002
  +9.10000000000e+002
  +1.01100000000e+003
  +1.11200000000e+003
  +1.21300000000e+003
  +1.31400000000e+003
  +1.41500000000e+003
  +1.51600000000e+003
  +1.61700000000e+003
  +1.71800000000e+003
  +1.81900000000e+003
  +1.92000000000e+003
  +2.02100000000e+003
  +2.12200000000e+003
  +2.22300000000e+003
  +2.32400000000e+003
  +2.42500000000e+003
  +2.52600000000e+003
  +2.62700000000e+003
  +2.72800000000e+003
  +2.82900000000e+003
  +2.93000000000e+003
  +3.03100000000e+003
  +3.13200000000e+003
  +3.23300000000e+003
  +3.33400000000e+003
  +3.43500000000e+003
  +3.53600000000e+003
  +3.63700000000e+003
  +3.73800000000e+003
  +3.83900000000e+003
  +3.94000000000e+003
  +4.04100000000e+003
  +4.14200000000e+003
  +4.24300000000e+003
  +4.34400000000e+003
  +4.44500000000e+003
  +4.54600000000e+003
  +4.64700000000e+003
  +4.74800000000e+003
  +4.84900000000e+003
  +4.95000000000e+003
  +5.05100000000e+003
  +5.15200000000e+003
  +5.25300000000e+003
  +5.35400000000e+003
  +5.45500000000e+003
  +5.55600000000e+003
  +5.65700000000e+003
  +5.75800000000e+003
  +5.85900000000e+003
  +5.96000000000e+003
  +6.06100000000e+003
  +6.16200000000e+003
  +6.26300000000e+003
  +6.36400000000e+003
  +6.46500000000e+003
  +6.56600000000e+003
  +6.66700000000e+003
  +6.76800000000e+003
  +6.86900000000e+003
  +6.97000000000e+003
  +7.07100000000e+003
  +7.17200000000e+003
  +7.27300000000e+003
  +7.37400000000e+003
  +7.47500000000e+003
  +7.57600000000e+003
  +7.67700000000e+003
  +7.77800000000e+003
  +7.87900000000e+003
  +7.98000000000e+003
  +8.08100000000e+003
  +8.18200000000e+003
  +8.28300000000e+003
  +8.38400000000e+003
  +8.48500000000e+003
  +8.58600000000e+003
  +8.68700000000e+003
  +8.78800000000e+003
  +8.88900000000e+003
  +8.99000000000e+003
  +9.09100000000e+003
  +9.19200000000e+003
  +9.29300000000e+003
  +9.39400000000e+003
  +9.49500000000e+003
  +9.59600000000e+003
  +9.69700000000e+003
  +9.79800000000e+003
  +9.89900000000e+003
  +1.00000000000e+004
</indep>
<dep Phase acfrequency>
  -7.19300346451e-003
  -7.33646262298e-001
  -1.45986373747e+000
  -2.18561241204e+000
  -2.91066017114e+000
  -3.63477624535e+000
  -4.35773164766e+000
  -5.07929960190e+000
  -5.79925596073e+000
  -6.51737961133e+000
  -7.23345286685e+000
  -7.94726184224e+000
  -8.65859681265e+000
  -9.36725255323e+000
  -1.00730286590e+001
  -1.07757298439e+001
  -1.14751662175e+001
  -1.21711535400e+001
  -1.28635134531e+001
  -1.35520736879e+001
  -1.42366682488e+001
  -1.49171375737e+001
  -1.55933286700e+001
  -1.62650952276e+001
  -1.69322977081e+001
  -1.75948034116e+001
  -1.82524865211e+001
  -1.89052281262e+001
  -1.95529162248e+001
  -2.01954457067e+001
  -2.08327183169e+001
  -2.14646426025e+001
  -2.20911338415e+001
  -2.27121139577e+001
  -2.33275114191e+001
  -2.39372611250e+001
  -2.45413042794e+001
  -2.51395882545e+001
  -2.57320664431e+001
  -2.63186981037e+001
  -2.68994481965e+001
  -2.74742872139e+001
  -2.80431910047e+001
  -2.86061405942e+001
  -2.91631220002e+001
  -2.97141260466e+001
  -3.02591481747e+001
  -3.07981882540e+001
  -3.13312503919e+001
  -3.18583427442e+001
  -3.23794773264e+001
  -3.28946698264e+001
  -3.34039394194e+001
  -3.39073085854e+001
  -3.44048029295e+001
  -3.48964510057e+001
  -3.53822841444e+001
  -3.58623362838e+001
  -3.63366438055e+001
  -3.68052453750e+001
  -3.72681817862e+001
  -3.77254958112e+001
  -3.81772320549e+001
  -3.86234368145e+001
  -3.90641579441e+001
  -3.94994447244e+001
  -3.99293477375e+001
  -4.03539187468e+001
  -4.07732105818e+001
  -4.11872770282e+001
  -4.15961727227e+001
  -4.19999530529e+001
  -4.23986740614e+001
  -4.27923923554e+001
  -4.31811650206e+001
  -4.35650495389e+001
  -4.39441037115e+001
  -4.43183855852e+001
  -4.46879533840e+001
  -4.50528654431e+001
  -4.54131801483e+001
  -4.57689558780e+001
  -4.61202509489e+001
  -4.64671235660e+001
  -4.68096317744e+001
  -4.71478334155e+001
  -4.74817860859e+001
  -4.78115470987e+001
  -4.81371734480e+001
  -4.84587217761e+001
  -4.87762483429e+001
  -4.90898089979e+001
  -4.93994591544e+001
  -4.97052537660e+001
  -5.00072473046e+001
  -5.03054937415e+001
  -5.06000465287e+001
  -5.08909585839e+001
  -5.11782822750e+001
  -5.14620694083e+001
</dep>
<dep Ampl acfrequency>
  -1.77879165525e-002
  -1.84998852006e-002
  -2.06074576051e-002
  -2.41086032712e-002
  -2.89999541732e-002
  -3.52768155325e-002
  -4.29331807892e-002
  -5.19617506655e-002
  -6.23539561968e-002
  -7.40999855766e-002
  -8.71888146423e-002
  -1.01608240805e-001
  -1.17344920206e-001
  -1.34384407873e-001
  -1.52711200620e-001
  -1.72308782444e-001
  -1.93159672130e-001
  -2.15245472819e-001
  -2.38546923226e-001
  -2.63043950251e-001
  -2.88715722697e-001
  -3.15540705801e-001
  -3.43496716335e-001
  -3.72560977988e-001
  -4.02710176781e-001
  -4.33920516272e-001
  -4.66167772319e-001
  -4.99427347175e-001
  -5.33674322721e-001
  -5.68883512635e-001
  -6.05029513334e-001
  -6.42086753531e-001
  -6.80029542261e-001
  -7.18832115252e-001
  -7.58468679547e-001
  -7.98913456270e-001
  -8.40140721468e-001
  -8.82124844968e-001
  -9.24840327211e-001
  -9.68261834019e-001
  -1.01236422928e+000
  -1.05712260557e+000
  -1.10251231266e+000
  -1.14850898399e+000
  -1.19508856110e+000
  -1.24222731607e+000
  -1.28990187193e+000
  -1.33808922129e+000
  -1.38676674299e+000
  -1.43591221699e+000
  -1.48550383760e+000
  -1.53552022489e+000
  -1.58594043467e+000
  -1.63674396687e+000
  -1.68791077242e+000
  -1.73942125887e+000
  -1.79125629463e+000
  -1.84339721201e+000
  -1.89582580912e+000
  -1.94852435067e+000
  -2.00147556778e+000
  -2.05466265689e+000
  -2.10806927774e+000
  -2.16167955058e+000
  -2.21547805271e+000
  -2.26944981422e+000
  -2.32358031325e+000
  -2.37785547061e+000
  -2.43226164395e+000
  -2.48678562144e+000
  -2.54141461510e+000
  -2.59613625375e+000
  -2.65093857564e+000
  -2.70581002089e+000
  -2.76073942355e+000
  -2.81571600369e+000
  -2.87072935910e+000
  -2.92576945706e+000
  -2.98082662590e+000
  -3.03589154652e+000
  -3.09095524390e+000
  -3.14600907855e+000
  -3.20104473796e+000
  -3.25605422815e+000
  -3.31102986513e+000
  -3.36596426655e+000
  -3.42085034329e+000
  -3.47568129126e+000
  -3.53045058322e+000
  -3.58515196068e+000
  -3.63977942601e+000
  -3.69432723459e+000
  -3.74878988713e+000
  -3.80316212211e+000
  -3.85743890836e+000
  -3.91161543781e+000
  -3.96568711838e+000
  -4.01964956696e+000
  -4.07349860269e+000
  -4.12723024022e+000
</dep>
<dep V5.i acfrequency>
  +4.16657986292e-004+j1.70659855691e-014
  +4.16657986314e-004+j1.74044517563e-012
  +4.16657986380e-004+j3.46214658753e-012
  +4.16657986490e-004+j5.18051428768e-012
  +4.16657986642e-004+j6.89390302683e-012
  +4.16657986838e-004+j8.60068346598e-012
  +4.16657987077e-004+j1.02992472957e-011
  +4.16657987357e-004+j1.19880122154e-011
  +4.16657987680e-004+j1.36654267416e-011
  +4.16657988043e-004+j1.53299748128e-011
  +4.16657988447e-004+j1.69801801670e-011
  +4.16657988891e-004+j1.86146104630e-011
  +4.16657989373e-004+j2.02318811251e-011
  +4.16657989893e-004+j2.18306588919e-011
  +4.16657990450e-004+j2.34096650511e-011
  +4.16657991044e-004+j2.49676783485e-011
  +4.16657991672e-004+j2.65035375612e-011
  +4.16657992334e-004+j2.80161437269e-011
  +4.16657993030e-004+j2.95044620270e-011
  +4.16657993756e-004+j3.09675233218e-011
  +4.16657994514e-004+j3.24044253416e-011
  +4.16657995300e-004+j3.38143335372e-011
  +4.16657996115e-004+j3.51964815987e-011
  +4.16657996956e-004+j3.65501716528e-011
  +4.16657997822e-004+j3.78747741507e-011
  +4.16657998713e-004+j3.91697274600e-011
  +4.16657999627e-004+j4.04345371790e-011
  +4.16658000563e-004+j4.16687751881e-011
  +4.16658001518e-004+j4.28720784582e-011
  +4.16658002493e-004+j4.40441476357e-011
  +4.16658003485e-004+j4.51847454228e-011
  +4.16658004494e-004+j4.62936947755e-011
  +4.16658005519e-004+j4.73708769374e-011
  +4.16658006557e-004+j4.84162293325e-011
  +4.16658007608e-004+j4.94297433343e-011
  +4.16658008670e-004+j5.04114619343e-011
  +4.16658009743e-004+j5.13614773260e-011
  +4.16658010826e-004+j5.22799284251e-011
  +4.16658011916e-004+j5.31669983421e-011
  +4.16658013014e-004+j5.40229118257e-011
  +4.16658014117e-004+j5.48479326906e-011
  +4.16658015226e-004+j5.56423612461e-011
  +4.16658016338e-004+j5.64065317382e-011
  +4.16658017454e-004+j5.71408098176e-011
  +4.16658018572e-004+j5.78455900451e-011
  +4.16658019691e-004+j5.85212934444e-011
  +4.16658020810e-004+j5.91683651105e-011
  +4.16658021930e-004+j5.97872718837e-011
  +4.16658023048e-004+j6.03785000928e-011
  +4.16658024164e-004+j6.09425533760e-011
  +4.16658025277e-004+j6.14799505831e-011
  +4.16658026387e-004+j6.19912237626e-011
  +4.16658027494e-004+j6.24769162376e-011
  +4.16658028596e-004+j6.29375807716e-011
  +4.16658029692e-004+j6.33737778263e-011
  +4.16658030784e-004+j6.37860739125e-011
  +4.16658031869e-004+j6.41750400330e-011
  +4.16658032947e-004+j6.45412502183e-011
  +4.16658034019e-004+j6.48852801535e-011
  +4.16658035083e-004+j6.52077058953e-011
  +4.16658036139e-004+j6.55091026771e-011
  +4.16658037187e-004+j6.57900438003e-011
  +4.16658038226e-004+j6.60510996097e-011
  +4.16658039257e-004+j6.62928365490e-011
  +4.16658040278e-004+j6.65158162960e-011
  +4.16658041291e-004+j6.67205949722e-011
  +4.16658042293e-004+j6.69077224249e-011
  +4.16658043286e-004+j6.70777415782e-011
  +4.16658044269e-004+j6.72311878503e-011
  +4.16658045242e-004+j6.73685886327e-011
  +4.16658046204e-004+j6.74904628294e-011
  +4.16658047156e-004+j6.75973204513e-011
  +4.16658048098e-004+j6.76896622641e-011
  +4.16658049029e-004+j6.77679794856e-011
  +4.16658049949e-004+j6.78327535295e-011
  +4.16658050858e-004+j6.78844557927e-011
  +4.16658051756e-004+j6.79235474831e-011
  +4.16658052644e-004+j6.79504794856e-011
  +4.16658053521e-004+j6.79656922624e-011
  +4.16658054387e-004+j6.79696157861e-011
  +4.16658055241e-004+j6.79626695027e-011
  +4.16658056085e-004+j6.79452623217e-011
  +4.16658056918e-004+j6.79177926314e-011
  +4.16658057740e-004+j6.78806483376e-011
  +4.16658058552e-004+j6.78342069224e-011
  +4.16658059352e-004+j6.77788355228e-011
  +4.16658060142e-004+j6.77148910254e-011
  +4.16658060921e-004+j6.76427201774e-011
  +4.16658061689e-004+j6.75626597106e-011
  +4.16658062447e-004+j6.74750364779e-011
  +4.16658063195e-004+j6.73801676006e-011
  +4.16658063932e-004+j6.72783606249e-011
  +4.16658064658e-004+j6.71699136864e-011
  +4.16658065375e-004+j6.70551156825e-011
  +4.16658066081e-004+j6.69342464494e-011
  +4.16658066777e-004+j6.68075769456e-011
  +4.16658067463e-004+j6.66753694377e-011
  +4.16658068140e-004+j6.65378776913e-011
  +4.16658068806e-004+j6.63953471625e-011
  +4.16658069463e-004+j6.62480151925e-011
</dep>
<dep Pr5.i acfrequency>
  +2.21206263430e-018+j1.70663411105e-014
  +2.22872641847e-014+j1.74048143490e-012
  +8.82341534744e-014+j3.46221871559e-012
  +1.97715861167e-013+j5.18062221506e-012
  +3.50521925113e-013+j6.89404664981e-012
  +5.46359449115e-013+j8.60086264688e-012
  +7.84854501718e-013+j1.02994618633e-011
  +1.06555389203e-012+j1.19882619657e-011
  +1.38792730695e-012+j1.36657114379e-011
  +1.75136979104e-012+j1.53302941873e-011
  +2.15520454776e-012+j1.69805339208e-011
  +2.59868603807e-012+j1.86149982674e-011
  +3.08100335039e-012+j2.02323026227e-011
  +3.60128381427e-012+j2.18311136973e-011
  +4.15859682822e-012+j2.34101527524e-011
  +4.75195787178e-012+j2.49681985085e-011
  +5.38033267047e-012+j2.65040897182e-011
  +6.04264148259e-012+j2.80167273966e-011
  +6.73776347639e-012+j2.95050767033e-011
  +7.46454116681e-012+j3.09681684786e-011
  +8.22178488149e-012+j3.24051004338e-011
  +9.00827722684e-012+j3.38150380025e-011
  +9.82277752620e-012+j3.51972148587e-011
  +1.06640262037e-011+j3.65509331148e-011
  +1.15307490886e-011+j3.78755632085e-011
  +1.24216616181e-011+j3.91705434960e-011
  +1.33354729163e-011+j4.04353795652e-011
  +1.42708897323e-011+j4.16696432875e-011
  +1.52266202185e-011+j4.28729716265e-011
  +1.62013775374e-011+j4.40450652221e-011
  +1.71938832816e-011+j4.51856867717e-011
  +1.82028706999e-011+j4.62946592275e-011
  +1.92270877191e-011+j4.73718638307e-011
  +2.02652997574e-011+j4.84172380039e-011
  +2.13162923239e-011+j4.94307731206e-011
  +2.23788734044e-011+j5.04125121731e-011
  +2.34518756301e-011+j5.13625473568e-011
  +2.45341582338e-011+j5.22810175902e-011
  +2.56246087937e-011+j5.31681059879e-011
  +2.67221447705e-011+j5.40240373030e-011
  +2.78257148427e-011+j5.48490753558e-011
  +2.89343000457e-011+j5.56435204619e-011
  +3.00469147235e-011+j5.64077068743e-011
  +3.11626072990e-011+j5.71420002511e-011
  +3.22804608733e-011+j5.78467951616e-011
  +3.33995936614e-011+j5.85225126380e-011
  +3.45191592752e-011+j5.91695977848e-011
  +3.56383468629e-011+j5.97885174519e-011
  +3.67563811135e-011+j6.03797579782e-011
  +3.78725221388e-011+j6.09438230125e-011
  +3.89860652401e-011+j6.14812314154e-011
  +4.00963405708e-011+j6.19925152464e-011
  +4.12027127041e-011+j6.24782178400e-011
  +4.23045801154e-011+j6.29388919712e-011
  +4.34013745872e-011+j6.33750981133e-011
  +4.44925605473e-011+j6.37874027890e-011
  +4.55776343461e-011+j6.41763770130e-011
  +4.66561234832e-011+j6.45425948277e-011
  +4.77275857892e-011+j6.48866319301e-011
  +4.87916085707e-011+j6.52090643891e-011
  +4.98478077247e-011+j6.55104674500e-011
  +5.08958268285e-011+j6.57914144262e-011
  +5.19353362119e-011+j6.60524756742e-011
  +5.29660320150e-011+j6.62942176497e-011
  +5.39876352390e-011+j6.65172020422e-011
  +5.49998907925e-011+j6.67219849846e-011
  +5.60025665385e-011+j6.69091163358e-011
  +5.69954523450e-011+j6.70791390312e-011
  +5.79783591438e-011+j6.72325885000e-011
  +5.89511179987e-011+j6.73699921450e-011
  +5.99135791879e-011+j6.74918688807e-011
  +6.08656113001e-011+j6.75987287288e-011
  +6.18071003502e-011+j6.76910724654e-011
  +6.27379489119e-011+j6.77693913185e-011
  +6.36580752725e-011+j6.78341667119e-011
  +6.45674126090e-011+j6.78858700522e-011
  +6.54659081872e-011+j6.79249625570e-011
  +6.63535225845e-011+j6.79518951206e-011
  +6.72302289371e-011+j6.79671082143e-011
  +6.80960122123e-011+j6.79710318198e-011
  +6.89508685056e-011+j6.79640853917e-011
  +6.97948043636e-011+j6.79466778480e-011
  +7.06278361314e-011+j6.79192075854e-011
  +7.14499893268e-011+j6.78820625177e-011
  +7.22612980381e-011+j6.78356201350e-011
  +7.30618043478e-011+j6.77802475818e-011
  +7.38515577806e-011+j6.77163017523e-011
  +7.46306147755e-011+j6.76441294007e-011
  +7.53990381813e-011+j6.75640672660e-011
  +7.61568967762e-011+j6.74764422078e-011
  +7.69042648091e-011+j6.73815713541e-011
  +7.76412215634e-011+j6.72797622574e-011
  +7.83678509422e-011+j6.71713130596e-011
  +7.90842410744e-011+j6.70565126640e-011
  +7.97904839405e-011+j6.69356409129e-011
  +8.04866750188e-011+j6.68089687701e-011
  +8.11729129492e-011+j6.66767585079e-011
  +8.18492992164e-011+j6.65392638971e-011
  +8.25159378497e-011+j6.63967303989e-011
  +8.31729351398e-011+j6.62493953595e-011
</dep>
<dep Pr3.i acfrequency>
  -4.16657986292e-004-j1.70659855691e-014
  -4.16657986314e-004-j1.74044517563e-012
  -4.16657986380e-004-j3.46214658753e-012
  -4.16657986490e-004-j5.18051428768e-012
  -4.16657986642e-004-j6.89390302683e-012
  -4.16657986838e-004-j8.60068346598e-012
  -4.16657987077e-004-j1.02992472957e-011
  -4.16657987357e-004-j1.19880122154e-011
  -4.16657987680e-004-j1.36654267416e-011
  -4.16657988043e-004-j1.53299748128e-011
  -4.16657988447e-004-j1.69801801670e-011
  -4.16657988891e-004-j1.86146104630e-011
  -4.16657989373e-004-j2.02318811251e-011
  -4.16657989893e-004-j2.18306588919e-011
  -4.16657990450e-004-j2.34096650511e-011
  -4.16657991044e-004-j2.49676783485e-011
  -4.16657991672e-004-j2.65035375612e-011
  -4.16657992334e-004-j2.80161437269e-011
  -4.16657993030e-004-j2.95044620270e-011
  -4.16657993756e-004-j3.09675233218e-011
  -4.16657994514e-004-j3.24044253416e-011
  -4.16657995300e-004-j3.38143335372e-011
  -4.16657996115e-004-j3.51964815987e-011
  -4.16657996956e-004-j3.65501716528e-011
  -4.16657997822e-004-j3.78747741507e-011
  -4.16657998713e-004-j3.91697274600e-011
  -4.16657999627e-004-j4.04345371790e-011
  -4.16658000563e-004-j4.16687751881e-011
  -4.16658001518e-004-j4.28720784582e-011
  -4.16658002493e-004-j4.40441476357e-011
  -4.16658003485e-004-j4.51847454228e-011
  -4.16658004494e-004-j4.62936947755e-011
  -4.16658005519e-004-j4.73708769374e-011
  -4.16658006557e-004-j4.84162293325e-011
  -4.16658007608e-004-j4.94297433343e-011
  -4.16658008670e-004-j5.04114619343e-011
  -4.16658009743e-004-j5.13614773260e-011
  -4.16658010826e-004-j5.22799284251e-011
  -4.16658011916e-004-j5.31669983421e-011
  -4.16658013014e-004-j5.40229118257e-011
  -4.16658014117e-004-j5.48479326906e-011
  -4.16658015226e-004-j5.56423612461e-011
  -4.16658016338e-004-j5.64065317382e-011
  -4.16658017454e-004-j5.71408098176e-011
  -4.16658018572e-004-j5.78455900451e-011
  -4.16658019691e-004-j5.85212934444e-011
  -4.16658020810e-004-j5.91683651105e-011
  -4.16658021930e-004-j5.97872718837e-011
  -4.16658023048e-004-j6.03785000928e-011
  -4.16658024164e-004-j6.09425533760e-011
  -4.16658025277e-004-j6.14799505831e-011
  -4.16658026387e-004-j6.19912237626e-011
  -4.16658027494e-004-j6.24769162376e-011
  -4.16658028596e-004-j6.29375807716e-011
  -4.16658029692e-004-j6.33737778263e-011
  -4.16658030784e-004-j6.37860739125e-011
  -4.16658031869e-004-j6.41750400330e-011
  -4.16658032947e-004-j6.45412502183e-011
  -4.16658034019e-004-j6.48852801535e-011
  -4.16658035083e-004-j6.52077058953e-011
  -4.16658036139e-004-j6.55091026771e-011
  -4.16658037187e-004-j6.57900438003e-011
  -4.16658038226e-004-j6.60510996097e-011
  -4.16658039257e-004-j6.62928365490e-011
  -4.16658040278e-004-j6.65158162960e-011
  -4.16658041291e-004-j6.67205949722e-011
  -4.16658042293e-004-j6.69077224249e-011
  -4.16658043286e-004-j6.70777415782e-011
  -4.16658044269e-004-j6.72311878503e-011
  -4.16658045242e-004-j6.73685886327e-011
  -4.16658046204e-004-j6.74904628294e-011
  -4.16658047156e-004-j6.75973204513e-011
  -4.16658048098e-004-j6.76896622641e-011
  -4.16658049029e-004-j6.77679794856e-011
  -4.16658049949e-004-j6.78327535295e-011
  -4.16658050858e-004-j6.78844557927e-011
  -4.16658051756e-004-j6.79235474831e-011
  -4.16658052644e-004-j6.79504794856e-011
  -4.16658053521e-004-j6.79656922624e-011
  -4.16658054387e-004-j6.79696157861e-011
  -4.16658055241e-004-j6.79626695027e-011
  -4.16658056085e-004-j6.79452623217e-011
  -4.16658056918e-004-j6.79177926314e-011
  -4.16658057740e-004-j6.78806483376e-011
  -4.16658058552e-004-j6.78342069224e-011
  -4.16658059352e-004-j6.77788355228e-011
  -4.16658060142e-004-j6.77148910254e-011
  -4.16658060921e-004-j6.76427201774e-011
  -4.16658061689e-004-j6.75626597106e-011
  -4.16658062447e-004-j6.74750364779e-011
  -4.16658063195e-004-j6.73801676006e-011
  -4.16658063932e-004-j6.72783606249e-011
  -4.16658064658e-004-j6.71699136864e-011
  -4.16658065375e-004-j6.70551156825e-011
  -4.16658066081e-004-j6.69342464494e-011
  -4.16658066777e-004-j6.68075769456e-011
  -4.16658067463e-004-j6.66753694377e-011
  -4.16658068140e-004-j6.65378776913e-011
  -4.16658068806e-004-j6.63953471625e-011
  -4.16658069463e-004-j6.62480151925e-011
</dep>
<dep Pr4.i acfrequency>
  -3.86123476857e-014-j6.27015991098e-014
  -1.20485739706e-013-j6.39451472676e-012
  -3.62769019535e-013-j1.27201637113e-011
  -7.64995531001e-013-j1.90335646663e-011
  -1.32639205401e-012-j2.53286729597e-011
  -2.04588251278e-012-j3.15995024134e-011
  -2.92209311482e-012-j3.78401441117e-011
  -3.95335887526e-012-j4.40447846958e-011
  -5.13773146868e-012-j5.02077240271e-011
  -6.47298834013e-012-j5.63233921094e-011
  -7.95664299650e-012-j6.23863651676e-011
  -9.58595639052e-012-j6.83913807919e-011
  -1.13579493019e-011-j7.43333520631e-011
