<Qucs Dataset 0.0.16>
<indep time 101>
  +0.00000000000e+000
  +1.00000000000e-004
  +2.00000000000e-004
  +3.00000000000e-004
  +4.00000000000e-004
  +5.00000000000e-004
  +6.00000000000e-004
  +7.00000000000e-004
  +8.00000000000e-004
  +9.00000000000e-004
  +1.00000000000e-003
  +1.10000000000e-003
  +1.20000000000e-003
  +1.30000000000e-003
  +1.40000000000e-003
  +1.50000000000e-003
  +1.60000000000e-003
  +1.70000000000e-003
  +1.80000000000e-003
  +1.90000000000e-003
  +2.00000000000e-003
  +2.10000000000e-003
  +2.20000000000e-003
  +2.30000000000e-003
  +2.40000000000e-003
  +2.50000000000e-003
  +2.60000000000e-003
  +2.70000000000e-003
  +2.80000000000e-003
  +2.90000000000e-003
  +3.00000000000e-003
  +3.10000000000e-003
  +3.20000000000e-003
  +3.30000000000e-003
  +3.40000000000e-003
  +3.50000000000e-003
  +3.60000000000e-003
  +3.70000000000e-003
  +3.80000000000e-003
  +3.90000000000e-003
  +4.00000000000e-003
  +4.10000000000e-003
  +4.20000000000e-003
  +4.30000000000e-003
  +4.40000000000e-003
  +4.50000000000e-003
  +4.60000000000e-003
  +4.70000000000e-003
  +4.80000000000e-003
  +4.90000000000e-003
  +5.00000000000e-003
  +5.10000000000e-003
  +5.20000000000e-003
  +5.30000000000e-003
  +5.40000000000e-003
  +5.50000000000e-003
  +5.60000000000e-003
  +5.70000000000e-003
  +5.80000000000e-003
  +5.90000000000e-003
  +6.00000000000e-003
  +6.10000000000e-003
  +6.20000000000e-003
  +6.30000000000e-003
  +6.40000000000e-003
  +6.50000000000e-003
  +6.60000000000e-003
  +6.70000000000e-003
  +6.80000000000e-003
  +6.90000000000e-003
  +7.00000000000e-003
  +7.10000000000e-003
  +7.20000000000e-003
  +7.30000000000e-003
  +7.40000000000e-003
  +7.50000000000e-003
  +7.60000000000e-003
  +7.70000000000e-003
  +7.80000000000e-003
  +7.90000000000e-003
  +8.00000000000e-003
  +8.10000000000e-003
  +8.20000000000e-003
  +8.30000000000e-003
  +8.40000000000e-003
  +8.50000000000e-003
  +8.60000000000e-003
  +8.70000000000e-003
  +8.80000000000e-003
  +8.90000000000e-003
  +9.00000000000e-003
  +9.10000000000e-003
  +9.20000000000e-003
  +9.30000000000e-003
  +9.40000000000e-003
  +9.50000000000e-003
  +9.60000000000e-003
  +9.70000000000e-003
  +9.80000000000e-003
  +9.90000000000e-003
  +1.00000000000e-002
</indep>
<dep V3.It time>
  -1.43949794590e-001
  -3.81800685830e-002
  -7.31923170794e-002
  -1.07310356505e-001
  -1.41765565876e-001
  -1.75037420345e-001
  -2.07169551014e-001
  -2.38203088908e-001
  -2.68177003002e-001
  -2.97128499151e-001
  -3.25093202058e-001
  -3.52105337237e-001
  -3.78197801602e-001
  -4.03402282495e-001
  -4.27749337774e-001
  -4.51268387266e-001
  -4.81850413103e-001
  -5.03530198199e-001
  -5.24473188719e-001
  -5.44704543731e-001
  -5.64248546877e-001
  -5.83128639557e-001
  -6.01367452319e-001
  -6.18986834671e-001
  -6.36007883472e-001
  -6.52450970043e-001
  -6.68335766093e-001
  -6.83681268570e-001
  -6.98505823487e-001
  -7.12827148808e-001
  -7.21814960600e-001
  -7.35345103589e-001
  -7.48416026020e-001
  -7.61043336275e-001
  -7.73242110047e-001
  -7.85026908763e-001
  -7.96411797339e-001
  -8.07410361301e-001
  -8.18035723279e-001
  -8.28300558931e-001
  -8.38217112287e-001
  -8.47797210562e-001
  -8.57859822472e-001
  -8.66773498935e-001
  -8.75384771580e-001
  -8.83703906689e-001
  -8.91740821419e-001
  -8.99505095738e-001
  -9.07005983936e-001
  -9.14252425739e-001
  -9.21253057043e-001
  -9.28016220276e-001
  -9.34549974401e-001
  -9.36142189972e-001
  -9.09532581372e-001
  -8.51996705324e-001
  -7.66600559446e-001
  -6.64492141125e-001
  -5.65073575389e-001
  -4.69057610726e-001
  -3.76333782289e-001
  -2.82540222968e-001
  -1.96237722222e-001
  -1.12932653477e-001
  -1.98731800508e-002
  +2.62999782911e-003
  +2.62555093193e-003
  +2.62198029034e-003
  +2.61859064344e-003
  +2.61525045536e-003
  +2.61146161646e-003
  +2.60814640054e-003
  +2.60483614957e-003
  +2.60153029128e-003
  +2.59822866349e-003
  +2.59493121743e-003
  +2.59163793576e-003
  +2.58834880988e-003
  +2.58506383361e-003
  +2.58178300145e-003
  +2.57850630809e-003
  +2.57523374831e-003
  +2.57196531687e-003
  +2.56870100858e-003
  +2.56544081822e-003
  +2.56218474060e-003
  +2.55893277053e-003
  +2.55614006023e-003
  +2.55289571555e-003
  +2.54965546363e-003
  +2.54641929927e-003
  +2.54276973656e-003
  +2.53954225859e-003
  +2.53631885210e-003
  +2.53309951196e-003
  +2.52988423302e-003
  +2.52667301016e-003
  +2.52346583828e-003
  +2.52026271225e-003
  +2.51706362699e-003
  +2.51386857737e-003
</dep>
<dep INJ.It time>
  +1.09065024336e-014
  +2.40371535431e-008
  +9.40005969388e-008
  +1.07310377607e-001
  +1.41765586175e-001
  +1.75037400644e-001
  +2.07169570138e-001
  +2.38203070341e-001
  +2.68177021031e-001
  +2.97128481641e-001
  +3.25093219066e-001
  +3.52105320714e-001
  +3.78197817658e-001
  +4.03402266891e-001
  +4.27749352603e-001
  +4.51268400438e-001
  +4.81850412858e-001
  +5.03530197955e-001
  +5.24473188474e-001
  +5.44704543487e-001
  +5.64248546633e-001
  +5.83128639313e-001
  +6.01367452075e-001
  +6.18986834427e-001
  +6.36007883228e-001
  +6.52450969799e-001
  +6.68335765849e-001
  +6.83681268326e-001
  +6.98505823243e-001
  +7.12827148564e-001
  +7.21814960356e-001
  +7.35345103345e-001
  +7.48416025776e-001
  +7.61043336031e-001
  +7.73242109803e-001
  +7.85026908519e-001
  +7.96411797096e-001
  +8.07410361057e-001
  +8.18035723035e-001
  +8.28300558687e-001
  +8.38217112043e-001
  +8.47797210528e-001
  +8.57859822505e-001
  +8.66773498967e-001
  +8.75384771613e-001
  +8.83703906721e-001
  +8.91740821451e-001
  +8.99505095771e-001
  +9.07005983969e-001
  +9.14252425772e-001
  +9.21253057076e-001
  +9.28016220308e-001
  +9.34549974433e-001
  +5.86289740415e-007
  +1.74293776844e-006
  +2.84678755171e-006
  +3.86092543689e-006
  +4.09148676470e-006
  +4.09060628881e-006
  +4.08964750104e-006
  +4.08861738091e-006
  +4.08744828932e-006
  +4.08608241232e-006
  +4.08426375499e-006
  +4.07992613280e-006
  +4.07296547375e-006
  +4.06858274869e-006
  +4.06501941917e-006
  +4.06162862916e-006
  +4.05828531261e-006
  +4.05449229451e-006
  +4.05117327730e-006
  +4.04785919675e-006
  +4.04454950456e-006
  +4.04124404518e-006
  +4.03794277166e-006
  +4.03464566717e-006
  +4.03135272323e-006
  +4.02806393369e-006
  +4.02477929308e-006
  +4.02149879607e-006
  +4.01822243744e-006
  +4.01495021194e-006
  +4.01168211437e-006
  +4.00841813952e-006
  +4.00515828218e-006
  +4.00190253717e-006
  +3.99910658503e-006
  +3.99585847425e-006
  +3.99261446098e-006
  +3.98937454005e-006
  +3.98572073926e-006
  +3.98248951478e-006
  +3.97926236650e-006
  +3.97603928927e-006
  +3.97282027798e-006
  +3.96960532747e-006
  +3.96639443264e-006
  +3.96318758836e-006
  +3.95998478953e-006
  +3.95678603105e-006
</dep>
<dep V5.It time>
  +1.66378243021e-015
  +5.69755881224e-012
  +1.27220931195e-011
  -1.82571604326e-009
  -1.82571604312e-009
  +1.82571404302e-009
  -1.82571604291e-009
  +1.82571404281e-009
  -1.82571604270e-009
  +1.82571404260e-009
  -1.82571604249e-009
  +1.82571404239e-009
  -1.82571604228e-009
  +1.82571404218e-009
  -1.82571604199e-009
  -2.46309798544e-010
  +2.42195929179e-010
  +2.42195929176e-010
  +2.42195929174e-010
  +2.42195929171e-010
  +2.42195929169e-010
  +2.42195929166e-010
  +2.42195929164e-010
  +2.42195929161e-010
  +2.42195929159e-010
  +2.42195929156e-010
  +2.42195929154e-010
  +2.42195929151e-010
  +2.42195929149e-010
  +2.42195929146e-010
  +2.42195929140e-010
  +2.42195929138e-010
  +2.42195929135e-010
  +2.42195929133e-010
  +2.42195929130e-010
  +2.42195929128e-010
  +2.42195929125e-010
  +2.42195929123e-010
  +2.42195929120e-010
  +2.42195929118e-010
  +2.42195929115e-010
  +3.27551181865e-011
  -3.26104706794e-011
  -3.26104706791e-011
  -3.26104706787e-011
  -3.26104706784e-011
  -3.26104706780e-011
  -3.26104706777e-011
  -3.26104706774e-011
  -3.26104706770e-011
  -3.26104706767e-011
  -3.26104706763e-011
  -3.26104706760e-011
  -6.53288098140e-008
  +6.56920681165e-008
  -6.52404737497e-008
  +6.60328782873e-008
  +6.56774626196e-001
  +5.61611827640e-001
  +4.66164569861e-001
  +3.74015013471e-001
  +2.83485940890e-001
  +1.97411963526e-001
  +1.14649087610e-001
  +2.54454149832e-002
  +1.80361646502e-003
  +3.32028250257e-004
  +8.36392523368e-005
  +2.26043462198e-005
  +6.23752558467e-006
  +1.47448086280e-006
  +4.43032572177e-007
  +1.57562547873e-007
  +7.83970302510e-008
  +5.64054887274e-008
  +5.02864896450e-008
  +4.85812753263e-008
  +4.81054062693e-008
  +4.79724772099e-008
  +4.79353614380e-008
  +4.79250504021e-008
  +4.79222440585e-008
  +4.79215368757e-008
  +4.79214131754e-008
  +4.79214478820e-008
  +4.79215220822e-008
  +4.79216028685e-008
  +4.79216705740e-008
  +4.79217455719e-008
  +4.79218161260e-008
  +3.94014710313e-008
  +3.83821689296e-008
  +3.83822274770e-008
  +3.83822828680e-008
  +3.83823353788e-008
  +3.83823852530e-008
  +3.83824327065e-008
  +3.83824779312e-008
  +3.83825210985e-008
  +3.83825623615e-008
  +3.83826018583e-008
</dep>
<dep INJ1.It time>
  +2.17586084679e-005
  +3.80371886927e-002
  +7.33351968843e-002
  +1.07310357629e-001
  +1.41765566999e-001
  +1.75037419222e-001
  +2.07169552137e-001
  +2.38203087784e-001
  +2.68177004126e-001
  +2.97128498027e-001
  +3.25093203182e-001
  +3.52105336114e-001
  +3.78197802725e-001
  +4.03402281371e-001
  +4.27749338897e-001
  +4.51268388387e-001
  +4.81850413104e-001
  +5.03530198200e-001
  +5.24473188720e-001
  +5.44704543732e-001
  +5.64248546879e-001
  +5.83128639559e-001
  +6.01367452321e-001
  +6.18986834672e-001
  +6.36007883474e-001
  +6.52450970044e-001
  +6.68335766095e-001
  +6.83681268572e-001
  +6.98505823489e-001
  +7.12827148810e-001
  +7.21814960602e-001
  +7.35345103591e-001
  +7.48416026021e-001
  +7.61043336277e-001
  +7.73242110049e-001
  +7.85026908764e-001
  +7.96411797341e-001
  +8.07410361302e-001
  +8.18035723280e-001
  +8.28300558932e-001
  +8.38217112288e-001
  +8.47797210563e-001
  +8.57859822472e-001
  +8.66773498935e-001
  +8.75384771580e-001
  +8.83703906689e-001
  +8.91740821419e-001
  +8.99505095738e-001
  +9.07005983936e-001
  +9.14252425739e-001
  +9.21253057043e-001
  +9.28016220276e-001
  +9.34549974401e-001
  +9.36142189972e-001
  +9.09532581372e-001
  +8.51996705324e-001
  +7.66600559446e-001
  +6.64492141125e-001
  +5.65073575389e-001
  +4.69057610726e-001
  +3.76333782289e-001
  +2.82540222968e-001
  +1.96237722222e-001
  +1.12932653477e-001
  +1.98731800509e-002
  -2.62999782915e-003
  -2.62555093197e-003
  -2.62198029024e-003
  -2.61859064348e-003
  -2.61525045543e-003
  -2.61146161573e-003
  -2.60814639981e-003
  -2.60483614884e-003
  -2.60153029055e-003
  -2.59822866276e-003
  -2.59493121670e-003
  -2.59163793503e-003
  -2.58834880915e-003
  -2.58506383288e-003
  -2.58178300072e-003
  -2.57850630737e-003
  -2.57523374758e-003
  -2.57196531614e-003
  -2.56870100785e-003
  -2.56544081749e-003
  -2.56218473987e-003
  -2.55893276980e-003
  -2.55614005950e-003
  -2.55289571482e-003
  -2.54965546290e-003
  -2.54641929858e-003
  -2.54276973426e-003
  -2.53954225630e-003
  -2.53631884981e-003
  -2.53309950966e-003
  -2.52988423072e-003
  -2.52667300787e-003
  -2.52346583598e-003
  -2.52026270996e-003
  -2.51706362469e-003
  -2.51386857508e-003
</dep>
<dep _net9.Vt time>
  +2.71982604328e-010
  +2.40181350810e-001
  +9.39639298573e-001
  +9.07652010149e-011
  +8.67506801910e-011
  -8.37617450429e-011
  +8.08757916477e-011
  -7.80892717559e-011
  +7.53987595127e-011
  -7.28009470410e-011
  +7.02926403773e-011
  -6.78707557470e-011
  +6.55323154261e-011
  -6.32744445065e-011
  +5.94016676735e-011
  +5.90227105264e-011
  -1.80685189831e-014
  -1.79532795269e-014
  -1.78387155278e-014
  -1.77249122035e-014
  -1.76118349022e-014
  -1.74994790717e-014
  -1.73878397471e-014
  -1.72769174943e-014
  -1.71666935900e-014
  -1.70571774829e-014
  -1.69483600414e-014
  -1.68402576672e-014
  -1.67328073433e-014
  -1.66260498003e-014
  -1.63919467437e-014
  -1.62873537994e-014
  -1.61834320572e-014
  -1.60802041443e-014
  -1.59776193603e-014
  -1.58756890743e-014
  -1.57744090197e-014
  -1.56737531190e-014
  -1.55737848292e-014
  -1.54744293434e-014
  -1.53757091660e-014
  -1.52776209388e-014
  -2.47322795896e-017
  -2.45244453073e-017
  -2.43858891192e-017
  -2.42473329310e-017
  -2.41087767428e-017
  -2.39009424605e-017
  -2.37827826875e-017
  -2.36310587832e-017
  -2.34803291280e-017
  -2.33467177078e-017
  -2.31816117835e-017
  +5.85821672512e+000
  +1.74248301177e+001
  +2.84636156898e+001
  +3.86054215788e+001
  +4.09148292844e+001
  +4.09060458043e+001
  +4.08964607701e+001
  +4.08861624401e+001
  +4.08744878466e+001
  +4.08608302192e+001
  +4.08426463567e+001
  +4.07992894136e+001
  +4.07296771296e+001
  +4.06858424986e+001
  +4.06502079434e+001
  +4.06162997210e+001
  +4.05828664568e+001
  +4.05449362328e+001
  +4.05117460388e+001
  +4.04786052151e+001
  +4.04455082761e+001
  +4.04124536655e+001
  +4.03794409136e+001
  +4.03464698520e+001
  +4.03135403960e+001
  +4.02806524840e+001
  +4.02478060613e+001
  +4.02150010747e+001
  +4.01822374718e+001
  +4.01495152003e+001
  +4.01168342081e+001
  +4.00841944431e+001
  +4.00515958533e+001
  +4.00190383867e+001
  +3.99910788512e+001
  +3.99585977270e+001
  +3.99261575779e+001
  +3.98937583522e+001
  +3.98572203259e+001
  +3.98249080647e+001
  +3.97926365656e+001
  +3.97604057771e+001
  +3.97282156479e+001
  +3.96960661266e+001
  +3.96639571621e+001
  +3.96318887031e+001
  +3.95998606986e+001
  +3.95678730976e+001
</dep>
<dep _net7.Vt time>
  +2.17098715407e-001
  +1.04869880037e+000
  +1.76533036456e+000
  +8.35174845651e-001
  +8.42378094570e-001
  +8.47831190223e-001
  +8.52190122461e-001
  +8.55800052496e-001
  +8.58865137209e-001
  +8.61516205887e-001
  +8.63842150624e-001
  +8.65906131842e-001
  +8.67754641096e-001
  +8.69422894815e-001
  +8.70938211602e-001
  +8.72322214230e-001
  +8.74017662866e-001
  +8.75155606200e-001
  +8.76209266974e-001
  +8.77187902068e-001
  +8.78099360327e-001
  +8.78950354150e-001
  +8.79746668581e-001
  +8.80493324422e-001
  +8.81194706972e-001
  +8.81854668746e-001
  +8.82476612234e-001
  +8.83063557192e-001
  +8.83618195793e-001
  +8.84142938191e-001
  +8.84466899219e-001
  +8.84947056501e-001
  +8.85402598582e-001
  +8.85835185862e-001
  +8.86246328551e-001
  +8.86637404128e-001
  +8.87009672312e-001
  +8.87364287997e-001
  +8.87702312439e-001
  +8.88024723004e-001
  +8.88332421665e-001
  +8.88626242911e-001
  +8.88931313517e-001
  +8.89198572334e-001
  +8.89454166494e-001
  +8.89698712704e-001
  +8.89932786094e-001
  +8.90156923783e-001
  +8.90371628076e-001
  +8.90577369326e-001
  +8.90774588511e-001
  +8.90963699553e-001
  +8.91145091419e-001
  +6.75408650453e+000
  +1.83198212314e+001
  +2.93566295157e+001
  +3.94952776681e+001
  +4.17971951390e+001
  +4.17842000315e+001
  +4.17697969254e+001
  +4.17538006900e+001
  +4.17346972351e+001
  +4.17116122134e+001
  +4.16791335399e+001
  +4.15907574578e+001
  +1.44286756838e+001
  +1.44293174390e+001
  +1.44313920000e+001
  +1.44293791432e+001
  +1.44293478672e+001
  +1.44303071900e+001
  +1.44302691772e+001
  +1.44302308814e+001
  +1.44301925424e+001
  +1.44301542265e+001
  +1.44301159518e+001
  +1.44300777235e+001
  +1.44300395429e+001
  +1.44300014103e+001
  +1.44299633258e+001
  +1.44299252893e+001
  +1.44298873008e+001
  +1.44298493602e+001
  +1.44298114675e+001
  +1.44297736226e+001
  +1.44297358254e+001
  +1.44296980759e+001
  +1.44296656576e+001
  +1.44296279966e+001
  +1.44295903831e+001
  +1.44295528171e+001
  +1.44295100445e+001
  +1.44294725793e+001
  +1.44294351613e+001
  +1.44293977906e+001
  +1.44293604670e+001
  +1.44293231905e+001
  +1.44292859610e+001
  +1.44292487785e+001
  +1.44292116429e+001
  +1.44291745542e+001
</dep>
<dep _net8.Vt time>
  +1.09065024336e-007
  +2.40371535431e-001
  +9.40005969388e-001
  +3.23651289146e-017
  +1.81790211140e-017
  +0.00000000000e+000
  -1.82196786954e-017
  +0.00000000000e+000
  +0.00000000000e+000
  -7.47083059478e-019
  +0.00000000000e+000
  +3.30851069198e-018
  +0.00000000000e+000
  +5.17401605501e-017
  +4.04932570764e-017
  -5.13654014105e-017
  +0.00000000000e+000
  -2.22363089313e-017
  +0.00000000000e+000
  +0.00000000000e+000
  +0.00000000000e+000
  +0.00000000000e+000
  +0.00000000000e+000
  +2.01526078811e-017
  +0.00000000000e+000
  +0.00000000000e+000
  +0.00000000000e+000
  -1.21057948822e-017
  +1.58869499587e-017
  +2.91209927266e-018
  -1.13383830319e-017
  +0.00000000000e+000
  +4.17976878152e-017
  +0.00000000000e+000
  +0.00000000000e+000
  +0.00000000000e+000
  +0.00000000000e+000
  +4.71102784604e-017
  +3.41947200807e-017
  +0.00000000000e+000
  +0.00000000000e+000
  +0.00000000000e+000
  +4.92583540146e-017
  +2.41590737216e-017
  -1.80756830944e-018
  -2.95275685413e-018
  -2.93446094247e-017
  -4.55602081669e-017
  +0.00000000000e+000
  +0.00000000000e+000
  +0.00000000000e+000
  -2.81553751667e-018
  +0.00000000000e+000
  +5.86289740415e+000
  +1.74293776844e+001
  +2.84678755171e+001
  +3.86092543689e+001
  +4.09148676470e+001
  +4.09060628881e+001
  +4.08964750104e+001
  +4.08861738091e+001
  +4.08744828932e+001
  +4.08608241232e+001
  +4.08426375499e+001
  +4.07992613280e+001
  +4.07296547375e+001
  +4.06858274869e+001
  +4.06501941917e+001
  +4.06162862916e+001
  +4.05828531261e+001
  +4.05449229451e+001
  +4.05117327730e+001
  +4.04785919675e+001
  +4.04454950456e+001
  +4.04124404518e+001
  +4.03794277166e+001
  +4.03464566717e+001
  +4.03135272323e+001
  +4.02806393369e+001
  +4.02477929308e+001
  +4.02149879607e+001
  +4.01822243744e+001
  +4.01495021194e+001
  +4.01168211437e+001
  +4.00841813952e+001
  +4.00515828218e+001
  +4.00190253717e+001
  +3.99910658503e+001
  +3.99585847425e+001
  +3.99261446098e+001
  +3.98937454005e+001
  +3.98572073926e+001
  +3.98248951478e+001
  +3.97926236650e+001
  +3.97603928927e+001
  +3.97282027798e+001
  +3.96960532747e+001
  +3.96639443264e+001
  +3.96318758836e+001
  +3.95998478953e+001
  +3.95678603105e+001
</dep>
<dep inj_low.Vt time>
  +1.09065024336e-007
  +2.40371535431e-001
  +9.40005969388e-001
  +3.23651289146e-017
  +1.81790211140e-017
  +0.00000000000e+000
  -1.82196786954e-017
  +0.00000000000e+000
  +0.00000000000e+000
  -7.47083059478e-019
  +0.00000000000e+000
  +3.30851069198e-018
  +0.00000000000e+000
  +5.17401605501e-017
  +4.04932570764e-017
  -5.13654014105e-017
  +0.00000000000e+000
  -2.22363089313e-017
  +0.00000000000e+000
  +0.00000000000e+000
  +0.00000000000e+000
  +0.00000000000e+000
  +0.00000000000e+000
  +2.01526078811e-017
  +0.00000000000e+000
  +0.00000000000e+000
  +0.00000000000e+000
  -1.21057948822e-017
  +1.58869499587e-017
  +2.91209927266e-018
  -1.13383830319e-017
  +0.00000000000e+000
  +4.17976878152e-017
  +0.00000000000e+000
  +0.00000000000e+000
  +0.00000000000e+000
  +0.00000000000e+000
  +4.71102784604e-017
  +3.41947200807e-017
  +0.00000000000e+000
  +0.00000000000e+000
  +0.00000000000e+000
  +4.92583540146e-017
  +2.41590737216e-017
  -1.80756830944e-018
  -2.95275685413e-018
  -2.93446094247e-017
  -4.55602081669e-017
  +0.00000000000e+000
  +0.00000000000e+000
  +0.00000000000e+000
  -2.81553751667e-018
  +0.00000000000e+000
  +5.86289740415e+000
  +1.74293776844e+001
  +2.84678755171e+001
  +3.86092543689e+001
  +4.09148676470e+001
  +4.09060628881e+001
  +4.08964750104e+001
  +4.08861738091e+001
  +4.08744828932e+001
  +4.08608241232e+001
  +4.08426375499e+001
  +4.07992613280e+001
  +4.07296547375e+001
  +4.06858274869e+001
  +4.06501941917e+001
  +4.06162862916e+001
  +4.05828531261e+001
  +4.05449229451e+001
  +4.05117327730e+001
  +4.04785919675e+001
  +4.04454950456e+001
  +4.04124404518e+001
  +4.03794277166e+001
  +4.03464566717e+001
  +4.03135272323e+001
  +4.02806393369e+001
  +4.02477929308e+001
  +4.02149879607e+001
  +4.01822243744e+001
  +4.01495021194e+001
  +4.01168211437e+001
  +4.00841813952e+001
  +4.00515828218e+001
  +4.00190253717e+001
  +3.99910658503e+001
  +3.99585847425e+001
