<Qucs Dataset 0.0.16>
<indep time 12>
  +0.00000000000e+000
  +1.00000000000e-004
  +2.00000000000e-004
  +3.00000000000e-004
  +4.00000000000e-004
  +5.00000000000e-004
  +6.00000000000e-004
  +7.00000000000e-004
  +8.00000000000e-004
  +9.00000000000e-004
  +1.00000000000e-003
  +1.10000000000e-003
</indep>
<dep V3.It time>
  -1.43950021508e-001
  -3.81976118460e-002
  -7.34879523092e-002
  -1.07298604665e-001
  -1.41742441308e-001
  -1.74999956619e-001
  -2.07114859591e-001
  -2.38128514193e-001
  -2.68080318805e-001
  -2.97007649914e-001
  -3.24946196171e-001
  -3.51930340856e-001
</dep>
<dep INJ.It time>
  +1.09955106199e-013
  +2.42311930027e-008
  +9.43708925586e-008
  +1.07200251022e-001
  +1.41647475320e-001
  +1.74908609430e-001
  +2.07026291911e-001
  +2.38043333567e-001
  +2.67997698136e-001
  +2.96927846864e-001
  +3.24869112540e-001
  +3.51856008651e-001
</dep>
<dep V5.It time>
  +2.59430569921e-014
  +5.25301336087e-012
  +1.11593868230e-011
  +3.06329298636e-007
  +3.06329298057e-007
  -3.06329269459e-007
  +3.06329296927e-007
  -3.06329270433e-007
  +3.06329295913e-007
  +3.06329295447e-007
  +3.06329294996e-007
  +9.14927830027e-008
</dep>
<dep INJ1.It time>
  +2.19855260941e-005
  +3.80547001857e-002
  +7.33450407740e-002
  +1.07298604840e-001
  +1.41742441482e-001
  +1.74999956445e-001
  +2.07114859766e-001
  +2.38128514019e-001
  +2.68080318980e-001
  +2.97007650089e-001
  +3.24946196345e-001
  +3.51930341030e-001
</dep>
<dep _net7.Vt time>
  +2.19824518580e-002
  +1.05015138383e+000
  +1.76877344208e+000
  +8.38742185338e-001
  +8.47192833467e-001
  +8.53834449514e-001
  +8.59333276553e-001
  +8.64039698208e-001
  +8.68161066765e-001
  +8.71830570756e-001
  +8.75138935918e-001
  +8.78150918186e-001
</dep>
<dep _net8.Vt time>
  +1.09955106199e-006
  +2.42311930027e-001
  +9.43708925586e-001
  +3.75200878576e-003
  +4.95766163620e-003
  +6.12180133004e-003
  +7.24592021687e-003
  +8.33151667484e-003
  +9.37991943476e-003
  +1.03924746403e-002
  +1.13704189389e-002
  +1.23149603028e-002
</dep>
<dep inj_low.Vt time>
  +1.09955106199e-006
  +2.42311930027e-001
  +9.43708925586e-001
  +3.75200878576e-003
  +4.95766163620e-003
  +6.12180133004e-003
  +7.24592021687e-003
  +8.33151667484e-003
  +9.37991943476e-003
  +1.03924746403e-002
  +1.13704189389e-002
  +1.23149603028e-002
</dep>
<dep _net9.Vt time>
  +2.74819060733e-010
  +2.40409208345e-001
  +9.40041725451e-001
  +3.74710659891e-003
  +4.95292889242e-003
  +6.11721896892e-003
  +7.24150750288e-003
  +8.32724275236e-003
  +9.37580417803e-003
  +1.03885003151e-002
  +1.13665806336e-002
  +1.23112488742e-002
</dep>
<dep _net3.Vt time>
  +0.00000000000e+000
  +0.00000000000e+000
  +0.00000000000e+000
  -2.75285707858e-020
  -2.89210929511e-017
  -3.81219883406e-017
  -3.81249529559e-017
  -2.18178746554e-017
  +1.72176387188e-017
  +5.16690097825e-020
  +3.75235595634e-019
  -2.70203510174e-019
</dep>
<dep inj_top.Vt time>
  +1.43997790455e+001
  +1.43980968967e+001
  +1.43963324123e+001
  +1.43946347192e+001
  +1.43929125395e+001
  +1.43912496754e+001
  +1.43896439414e+001
  +1.43880932696e+001
  +1.43865956897e+001
  +1.43851493332e+001
  +1.43837524156e+001
  +1.43824032189e+001
</dep>
<dep _net6.Vt time>
  +1.43995152191e+001
  +1.39414404944e+001
  +1.35161919230e+001
  +1.31070514611e+001
  +1.26920032417e+001
  +1.22912501981e+001
  +1.19042656242e+001
  +1.15305511014e+001
  +1.11696318619e+001
  +1.08210575321e+001
  +1.04843980594e+001
  +1.01592391266e+001
</dep>
<dep _net2.Vt time>
  +1.43997801447e+001
  +1.43999996317e+001
  +1.43999996644e+001
  +1.43999996494e+001
  +1.43999996615e+001
  +1.43999996733e+001
  +1.43999996844e+001
  +1.43999996953e+001
  +1.43999997056e+001
  +1.43999997157e+001
  +1.43999997254e+001
  +1.43999997360e+001
</dep>
<dep _net5.Vt time>
  +1.09955106070e-006
  +2.42311930026e-001
  +9.43708925585e-001
  +3.75199346929e-003
  +4.95764631973e-003
  +6.12181664651e-003
  +7.24590490041e-003
  +8.33153199130e-003
  +9.37990411830e-003
  +1.03924593238e-002
  +1.13704036224e-002
  +1.23149557281e-002
</dep>
<dep _net4.Vt time>
  +4.00000000000e+001
  +4.00000000000e+001
  +4.00000000000e+001
  +4.00000000000e+001
  +4.00000000000e+001
  +4.00000000000e+001
  +4.00000000000e+001
  +4.00000000000e+001
  +4.00000000000e+001
  +4.00000000000e+001
  +4.00000000000e+001
  +4.00000000000e+001
</dep>
<dep _net0.Vt time>
  +1.44000000000e+001
  +1.44000000000e+001
  +1.44000000000e+001
  +1.44000000000e+001
  +1.44000000000e+001
  +1.44000000000e+001
  +1.44000000000e+001
  +1.44000000000e+001
  +1.44000000000e+001
  +1.44000000000e+001
  +1.44000000000e+001
  +1.44000000000e+001
</dep>
<dep _net1.Vt time>
  +1.43928035982e+001
  +1.43999928544e+001
  +1.43999928544e+001
  +1.44000000000e+001
  +1.44000000000e+001
  +1.44000000000e+001
  +1.44000000000e+001
  +1.44000000000e+001
  +1.44000000000e+001
  +1.44000000000e+001
  +1.44000000000e+001
  +1.44000000000e+001
</dep>
