<Qucs Dataset 0.0.16>
<indep time 200>
  +0.00000000000e+000
  +1.50753768844e-008
  +3.01507537688e-008
  +4.52261306533e-008
  +6.03015075377e-008
  +7.53768844221e-008
  +9.04522613065e-008
  +1.05527638191e-007
  +1.20603015075e-007
  +1.35678391960e-007
  +1.50753768844e-007
  +1.65829145729e-007
  +1.80904522613e-007
  +1.95979899497e-007
  +2.11055276382e-007
  +2.26130653266e-007
  +2.41206030151e-007
  +2.56281407035e-007
  +2.71356783920e-007
  +2.86432160804e-007
  +3.01507537688e-007
  +3.16582914573e-007
  +3.31658291457e-007
  +3.46733668342e-007
  +3.61809045226e-007
  +3.76884422111e-007
  +3.91959798995e-007
  +4.07035175879e-007
  +4.22110552764e-007
  +4.37185929648e-007
  +4.52261306533e-007
  +4.67336683417e-007
  +4.82412060302e-007
  +4.97487437186e-007
  +5.12562814070e-007
  +5.27638190955e-007
  +5.42713567839e-007
  +5.57788944724e-007
  +5.72864321608e-007
  +5.87939698492e-007
  +6.03015075377e-007
  +6.18090452261e-007
  +6.33165829146e-007
  +6.48241206030e-007
  +6.63316582915e-007
  +6.78391959799e-007
  +6.93467336683e-007
  +7.08542713568e-007
  +7.23618090452e-007
  +7.38693467337e-007
  +7.53768844221e-007
  +7.68844221106e-007
  +7.83919597990e-007
  +7.98994974874e-007
  +8.14070351759e-007
  +8.29145728643e-007
  +8.44221105528e-007
  +8.59296482412e-007
  +8.74371859296e-007
  +8.89447236181e-007
  +9.04522613065e-007
  +9.19597989950e-007
  +9.34673366834e-007
  +9.49748743719e-007
  +9.64824120603e-007
  +9.79899497487e-007
  +9.94974874372e-007
  +1.01005025126e-006
  +1.02512562814e-006
  +1.04020100503e-006
  +1.05527638191e-006
  +1.07035175879e-006
  +1.08542713568e-006
  +1.10050251256e-006
  +1.11557788945e-006
  +1.13065326633e-006
  +1.14572864322e-006
  +1.16080402010e-006
  +1.17587939698e-006
  +1.19095477387e-006
  +1.20603015075e-006
  +1.22110552764e-006
  +1.23618090452e-006
  +1.25125628141e-006
  +1.26633165829e-006
  +1.28140703518e-006
  +1.29648241206e-006
  +1.31155778894e-006
  +1.32663316583e-006
  +1.34170854271e-006
  +1.35678391960e-006
  +1.37185929648e-006
  +1.38693467337e-006
  +1.40201005025e-006
  +1.41708542714e-006
  +1.43216080402e-006
  +1.44723618090e-006
  +1.46231155779e-006
  +1.47738693467e-006
  +1.49246231156e-006
  +1.50753768844e-006
  +1.52261306533e-006
  +1.53768844221e-006
  +1.55276381910e-006
  +1.56783919598e-006
  +1.58291457286e-006
  +1.59798994975e-006
  +1.61306532663e-006
  +1.62814070352e-006
  +1.64321608040e-006
  +1.65829145729e-006
  +1.67336683417e-006
  +1.68844221106e-006
  +1.70351758794e-006
  +1.71859296482e-006
  +1.73366834171e-006
  +1.74874371859e-006
  +1.76381909548e-006
  +1.77889447236e-006
  +1.79396984925e-006
  +1.80904522613e-006
  +1.82412060302e-006
  +1.83919597990e-006
  +1.85427135678e-006
  +1.86934673367e-006
  +1.88442211055e-006
  +1.89949748744e-006
  +1.91457286432e-006
  +1.92964824121e-006
  +1.94472361809e-006
  +1.95979899497e-006
  +1.97487437186e-006
  +1.98994974874e-006
  +2.00502512563e-006
  +2.02010050251e-006
  +2.03517587940e-006
  +2.05025125628e-006
  +2.06532663317e-006
  +2.08040201005e-006
  +2.09547738693e-006
  +2.11055276382e-006
  +2.12562814070e-006
  +2.14070351759e-006
  +2.15577889447e-006
  +2.17085427136e-006
  +2.18592964824e-006
  +2.20100502513e-006
  +2.21608040201e-006
  +2.23115577889e-006
  +2.24623115578e-006
  +2.26130653266e-006
  +2.27638190955e-006
  +2.29145728643e-006
  +2.30653266332e-006
  +2.32160804020e-006
  +2.33668341709e-006
  +2.35175879397e-006
  +2.36683417085e-006
  +2.38190954774e-006
  +2.39698492462e-006
  +2.41206030151e-006
  +2.42713567839e-006
  +2.44221105528e-006
  +2.45728643216e-006
  +2.47236180905e-006
  +2.48743718593e-006
  +2.50251256281e-006
  +2.51758793970e-006
  +2.53266331658e-006
  +2.54773869347e-006
  +2.56281407035e-006
  +2.57788944724e-006
  +2.59296482412e-006
  +2.60804020101e-006
  +2.62311557789e-006
  +2.63819095477e-006
  +2.65326633166e-006
  +2.66834170854e-006
  +2.68341708543e-006
  +2.69849246231e-006
  +2.71356783920e-006
  +2.72864321608e-006
  +2.74371859296e-006
  +2.75879396985e-006
  +2.77386934673e-006
  +2.78894472362e-006
  +2.80402010050e-006
  +2.81909547739e-006
  +2.83417085427e-006
  +2.84924623116e-006
  +2.86432160804e-006
  +2.87939698492e-006
  +2.89447236181e-006
  +2.90954773869e-006
  +2.92462311558e-006
  +2.93969849246e-006
  +2.95477386935e-006
  +2.96984924623e-006
  +2.98492462312e-006
  +3.00000000000e-006
</indep>
<dep V1.It time>
  -8.00000000000e-003
  -8.00000000000e-003
  -8.00000000000e-003
  -8.00000000000e-003
  -8.00000000000e-003
  -8.00000000000e-003
  -8.00000000000e-003
  -8.00000000000e-003
  -8.00000000000e-003
  -8.00000000000e-003
  -8.00000000000e-003
  -8.00000000000e-003
  -8.00000000000e-003
  -8.00000000000e-003
  -8.00000000000e-003
  -8.00000000000e-003
  -8.00000000000e-003
  -8.00000000000e-003
  -8.00000000000e-003
  -8.00000000000e-003
  -8.00000000000e-003
  -8.00000000000e-003
  -8.00000000000e-003
  -8.00000000000e-003
  -8.00000000000e-003
  -8.00000000000e-003
  -8.00000000000e-003
  -8.00000000000e-003
  -8.00000000000e-003
  -8.00000000000e-003
  -8.00000000000e-003
  -8.00000000000e-003
  -8.00000000000e-003
  -8.00000000000e-003
  -8.00000000000e-003
  -8.00000000000e-003
  -8.00000000000e-003
  -8.00000000000e-003
  -8.00000000000e-003
  -8.00000000000e-003
  -8.00000000000e-003
  -8.00000000000e-003
  -8.00000000000e-003
  -8.00000000000e-003
  -8.00000000000e-003
  -8.00000000000e-003
  -8.00000000000e-003
  -8.00000000000e-003
  -8.00000000000e-003
  -8.00000000000e-003
  -8.00000000000e-003
  -8.00000000000e-003
  -8.00000000000e-003
  -8.00000000000e-003
  -8.00000000000e-003
  -8.00000000000e-003
  -8.00000000000e-003
  -8.00000000000e-003
  -8.00000000000e-003
  -8.00000000000e-003
  -8.00000000000e-003
  -8.00000000000e-003
  -8.00000000000e-003
  -8.00000000000e-003
  -8.00000000000e-003
  -8.00000000000e-003
  -8.00000000000e-003
  -8.00000000000e-003
  -8.00000000000e-003
  -8.00000000000e-003
  -8.00000000000e-003
  -8.00000000000e-003
  -8.00000000000e-003
  -8.00000000000e-003
  -8.00000000000e-003
  -8.00000000000e-003
  -8.00000000000e-003
  -8.00000000000e-003
  -8.00000000000e-003
  -8.00000000000e-003
  -8.00000000000e-003
  -8.00000000000e-003
  -8.00000000000e-003
  -8.00000000000e-003
  -8.00000000000e-003
  -8.00000000000e-003
  -8.00000000000e-003
  -8.00000000000e-003
  -8.00000000000e-003
  -8.00000000000e-003
  -8.00000000000e-003
  -8.00000000000e-003
  -8.00000000000e-003
  -8.00000000000e-003
  -8.00000000000e-003
  -8.00000000000e-003
  -8.00000000000e-003
  -8.00000000000e-003
  -8.00000000000e-003
  -8.00000000000e-003
  -8.00000000000e-003
  -8.00000000000e-003
  -8.00000000000e-003
  -8.00000000000e-003
  -8.00000000000e-003
  -8.00000000000e-003
  -8.00000000000e-003
  -8.00000000000e-003
  -8.00000000000e-003
  -8.00000000000e-003
  -8.00000000000e-003
  -8.00000000000e-003
  -8.00000000000e-003
  -8.00000000000e-003
  -8.00000000000e-003
  -8.00000000000e-003
  -8.00000000000e-003
  -8.00000000000e-003
  -8.00000000000e-003
  -8.00000000000e-003
  -8.00000000000e-003
  -8.00000000000e-003
  -8.00000000000e-003
  -8.00000000000e-003
  -8.00000000000e-003
  -8.00000000000e-003
  -8.00000000000e-003
  -8.00000000000e-003
  -8.00000000000e-003
  -8.00000000000e-003
  -8.00000000000e-003
  -8.00000000000e-003
  -8.00000000000e-003
  -8.00000000000e-003
  -8.00000000000e-003
  -8.00000000000e-003
  -8.00000000000e-003
  -8.00000000000e-003
  -8.00000000000e-003
  -8.00000000000e-003
  -8.00000000000e-003
  -8.00000000000e-003
  -8.00000000000e-003
  -8.00000000000e-003
  -8.00000000000e-003
  -8.00000000000e-003
  -8.00000000000e-003
  -8.00000000000e-003
  -8.00000000000e-003
  -8.00000000000e-003
  -8.00000000000e-003
  -8.00000000000e-003
  -8.00000000000e-003
  -8.00000000000e-003
  -8.00000000000e-003
  -8.00000000000e-003
  -8.00000000000e-003
  -8.00000000000e-003
  -8.00000000000e-003
  -8.00000000000e-003
  -8.00000000000e-003
  -8.00000000000e-003
  -8.00000000000e-003
  -8.00000000000e-003
  -8.00000000000e-003
  -8.00000000000e-003
  -8.00000000000e-003
  -8.00000000000e-003
  -8.00000000000e-003
  -8.00000000000e-003
  -8.00000000000e-003
  -8.00000000000e-003
  -8.00000000000e-003
  -8.00000000000e-003
  -8.00000000000e-003
  -8.00000000000e-003
  -8.00000000000e-003
  -8.00000000000e-003
  -8.00000000000e-003
  -8.00000000000e-003
  -8.00000000000e-003
  -8.00000000000e-003
  -8.00000000000e-003
  -8.00000000000e-003
  -8.00000000000e-003
  -8.00000000000e-003
  -8.00000000000e-003
  -8.00000000000e-003
  -8.00000000000e-003
  -8.00000000000e-003
  -8.00000000000e-003
  -8.00000000000e-003
  -8.00000000000e-003
  -8.00000000000e-003
  -8.00000000000e-003
  -8.00000000000e-003
  -8.00000000000e-003
  -8.00000000000e-003
  -8.00000000000e-003
  -8.00000000000e-003
</dep>
<dep _net1.Vt time>
  +7.86475468867e-001
  +7.86475468869e-001
  +7.86475468866e-001
  +7.86475468869e-001
  +7.86475468866e-001
  +7.86475468869e-001
  +7.86475468866e-001
  +7.86475468869e-001
  +7.86475468866e-001
  +7.86475468869e-001
  +7.86475468866e-001
  +7.86475468869e-001
  +7.86475468866e-001
  +7.86475468869e-001
  +7.86475468866e-001
  +7.86475468869e-001
  +7.86475468866e-001
  +7.86475468869e-001
  +7.86475468866e-001
  +7.86475468869e-001
  +7.86475468866e-001
  +7.86475468869e-001
  +7.86475468866e-001
  +7.86475468869e-001
  +7.86475468866e-001
  +7.86475468869e-001
  +7.86475468866e-001
  +7.86475468869e-001
  +7.86475468866e-001
  +7.86475468869e-001
  +7.86475468866e-001
  +7.86475468869e-001
  +7.86475468866e-001
  +7.86475468869e-001
  +7.86475468866e-001
  +7.86475468869e-001
  +7.86475468866e-001
  +7.86475468869e-001
  +7.86475468866e-001
  +7.86475468869e-001
  +7.86475468866e-001
  +7.86475468869e-001
  +7.86475468866e-001
  +7.86475468868e-001
  +7.86475468866e-001
  +7.86475468869e-001
  +7.86475468866e-001
  +7.86475468869e-001
  +7.86475468866e-001
  +7.86475468868e-001
  +7.86475468866e-001
  +7.86475468868e-001
  +7.86475468866e-001
  +7.86475468869e-001
  +7.86475468866e-001
  +7.86475468868e-001
  +7.86475468866e-001
  +7.86475468868e-001
  +7.86475468866e-001
  +7.86475468868e-001
  +7.86475468866e-001
  +7.86475468868e-001
  +7.86475468866e-001
  +7.86475468868e-001
  +7.86475468866e-001
  +7.86475468868e-001
  +7.86475468866e-001
  +7.86475468868e-001
  +7.86475468866e-001
  +7.86475468868e-001
  +7.86475468866e-001
  +7.86475468868e-001
  +7.86475468866e-001
  +7.86475468868e-001
  +7.86475468866e-001
  +7.86475468868e-001
  +7.86475468866e-001
  +7.86475468868e-001
  +7.86475468866e-001
  +7.86475468868e-001
  +7.86475468866e-001
  +7.86475468868e-001
  +7.86475468866e-001
  +7.86475468868e-001
  +7.86475468866e-001
  +7.86475468868e-001
  +7.86475468866e-001
  +7.86475468868e-001
  +7.86475468866e-001
  +7.86475468868e-001
  +7.86475468866e-001
  +7.86475468868e-001
  +7.86475468866e-001
  +7.86475468868e-001
  +7.86475468866e-001
  +7.86475468868e-001
  +7.86475468866e-001
  +7.86475468868e-001
  +7.86475468866e-001
  +7.86475468868e-001
  +7.86475468866e-001
  +7.86475468868e-001
  +7.86475468866e-001
  +7.86475468868e-001
  +7.86475468866e-001
  +7.86475468868e-001
  +7.86475468866e-001
  +7.86475468868e-001
  +7.86475468866e-001
  +7.86475468868e-001
  +7.86475468866e-001
  +7.86475468868e-001
  +7.86475468866e-001
  +7.86475468868e-001
  +7.86475468866e-001
  +7.86475468868e-001
  +7.86475468866e-001
  +7.86475468868e-001
  +7.86475468866e-001
  +7.86475468868e-001
  +7.86475468866e-001
  +7.86475468868e-001
  +7.86475468866e-001
  +7.86475468868e-001
  +7.86475468866e-001
  +7.86475468868e-001
  +7.86475468866e-001
  +7.86475468868e-001
  +7.86475468866e-001
  +7.86475468868e-001
  +7.86475468866e-001
  +7.86475468868e-001
  +7.86475468866e-001
  +7.86475468868e-001
  +7.86475468866e-001
  +7.86475468868e-001
  +7.86475468866e-001
  +7.86475468868e-001
  +7.86475468866e-001
  +7.86475468868e-001
  +7.86475468866e-001
  +7.86475468868e-001
  +7.86475468866e-001
  +7.86475468868e-001
  +7.86475468866e-001
  +7.86475468868e-001
  +7.86475468866e-001
  +7.86475468868e-001
  +7.86475468866e-001
  +7.86475468868e-001
  +7.86475468866e-001
  +7.86475468868e-001
  +7.86475468866e-001
  +7.86475468868e-001
  +7.86475468866e-001
  +7.86475468868e-001
  +7.86475468866e-001
  +7.86475468868e-001
  +7.86475468866e-001
  +7.86475468868e-001
  +7.86475468866e-001
  +7.86475468868e-001
  +7.86475468866e-001
  +7.86475468868e-001
  +7.86475468866e-001
  +7.86475468868e-001
  +7.86475468866e-001
  +7.86475468868e-001
  +7.86475468866e-001
  +7.86475468868e-001
  +7.86475468866e-001
  +7.86475468868e-001
  +7.86475468866e-001
  +7.86475468868e-001
  +7.86475468866e-001
  +7.86475468868e-001
  +7.86475468866e-001
  +7.86475468868e-001
  +7.86475468866e-001
  +7.86475468868e-001
  +7.86475468866e-001
  +7.86475468868e-001
  +7.86475468866e-001
  +7.86475468868e-001
  +7.86475468866e-001
  +7.86475468868e-001
  +7.86475468866e-001
  +7.86475468868e-001
  +7.86475468866e-001
  +7.86475468868e-001
  +7.86475468866e-001
  +7.86475468868e-001
  +7.86475468866e-001
  +7.86475468868e-001
  +7.86475468866e-001
  +7.86475468868e-001
  +7.86475468866e-001
  +7.86475468868e-001
  +7.86475468866e-001
  +7.86475468868e-001
</dep>
<dep _net2.Vt time>
  +5.00000000000e+000
  +5.00000000000e+000
  +5.00000000000e+000
  +5.00000000000e+000
  +5.00000000000e+000
  +5.00000000000e+000
  +5.00000000000e+000
  +5.00000000000e+000
  +5.00000000000e+000
  +5.00000000000e+000
  +5.00000000000e+000
  +5.00000000000e+000
  +5.00000000000e+000
  +5.00000000000e+000
  +5.00000000000e+000
  +5.00000000000e+000
  +5.00000000000e+000
  +5.00000000000e+000
  +5.00000000000e+000
  +5.00000000000e+000
  +5.00000000000e+000
  +5.00000000000e+000
  +5.00000000000e+000
  +5.00000000000e+000
  +5.00000000000e+000
  +5.00000000000e+000
  +5.00000000000e+000
  +5.00000000000e+000
  +5.00000000000e+000
  +5.00000000000e+000
  +5.00000000000e+000
  +5.00000000000e+000
  +5.00000000000e+000
  +5.00000000000e+000
  +5.00000000000e+000
  +5.00000000000e+000
  +5.00000000000e+000
  +5.00000000000e+000
  +5.00000000000e+000
  +5.00000000000e+000
  +5.00000000000e+000
  +5.00000000000e+000
  +5.00000000000e+000
  +5.00000000000e+000
  +5.00000000000e+000
  +5.00000000000e+000
  +5.00000000000e+000
  +5.00000000000e+000
  +5.00000000000e+000
  +5.00000000000e+000
  +5.00000000000e+000
  +5.00000000000e+000
  +5.00000000000e+000
  +5.00000000000e+000
  +5.00000000000e+000
  +5.00000000000e+000
  +5.00000000000e+000
  +5.00000000000e+000
  +5.00000000000e+000
  +5.00000000000e+000
  +5.00000000000e+000
  +5.00000000000e+000
  +5.00000000000e+000
  +5.00000000000e+000
  +5.00000000000e+000
  +5.00000000000e+000
  +5.00000000000e+000
  +5.00000000000e+000
  +5.00000000000e+000
  +5.00000000000e+000
  +5.00000000000e+000
  +5.00000000000e+000
  +5.00000000000e+000
  +5.00000000000e+000
  +5.00000000000e+000
  +5.00000000000e+000
  +5.00000000000e+000
  +5.00000000000e+000
  +5.00000000000e+000
  +5.00000000000e+000
  +5.00000000000e+000
  +5.00000000000e+000
  +5.00000000000e+000
  +5.00000000000e+000
  +5.00000000000e+000
  +5.00000000000e+000
  +5.00000000000e+000
  +5.00000000000e+000
  +5.00000000000e+000
  +5.00000000000e+000
  +5.00000000000e+000
  +5.00000000000e+000
  +5.00000000000e+000
  +5.00000000000e+000
  +5.00000000000e+000
  +5.00000000000e+000
  +5.00000000000e+000
  +5.00000000000e+000
  +5.00000000000e+000
  +5.00000000000e+000
  +5.00000000000e+000
  +5.00000000000e+000
  +5.00000000000e+000
  +5.00000000000e+000
  +5.00000000000e+000
  +5.00000000000e+000
  +5.00000000000e+000
  +5.00000000000e+000
  +5.00000000000e+000
  +5.00000000000e+000
  +5.00000000000e+000
  +5.00000000000e+000
  +5.00000000000e+000
  +5.00000000000e+000
  +5.00000000000e+000
  +5.00000000000e+000
  +5.00000000000e+000
  +5.00000000000e+000
  +5.00000000000e+000
  +5.00000000000e+000
  +5.00000000000e+000
  +5.00000000000e+000
  +5.00000000000e+000
  +5.00000000000e+000
  +5.00000000000e+000
  +5.00000000000e+000
  +5.00000000000e+000
  +5.00000000000e+000
  +5.00000000000e+000
  +5.00000000000e+000
  +5.00000000000e+000
  +5.00000000000e+000
  +5.00000000000e+000
  +5.00000000000e+000
  +5.00000000000e+000
  +5.00000000000e+000
  +5.00000000000e+000
  +5.00000000000e+000
  +5.00000000000e+000
  +5.00000000000e+000
  +5.00000000000e+000
  +5.00000000000e+000
  +5.00000000000e+000
  +5.00000000000e+000
  +5.00000000000e+000
  +5.00000000000e+000
  +5.00000000000e+000
  +5.00000000000e+000
  +5.00000000000e+000
  +5.00000000000e+000
  +5.00000000000e+000
  +5.00000000000e+000
  +5.00000000000e+000
  +5.00000000000e+000
  +5.00000000000e+000
  +5.00000000000e+000
  +5.00000000000e+000
  +5.00000000000e+000
  +5.00000000000e+000
  +5.00000000000e+000
  +5.00000000000e+000
  +5.00000000000e+000
  +5.00000000000e+000
  +5.00000000000e+000
  +5.00000000000e+000
  +5.00000000000e+000
  +5.00000000000e+000
  +5.00000000000e+000
  +5.00000000000e+000
  +5.00000000000e+000
  +5.00000000000e+000
  +5.00000000000e+000
  +5.00000000000e+000
  +5.00000000000e+000
  +5.00000000000e+000
  +5.00000000000e+000
  +5.00000000000e+000
  +5.00000000000e+000
  +5.00000000000e+000
  +5.00000000000e+000
  +5.00000000000e+000
  +5.00000000000e+000
  +5.00000000000e+000
  +5.00000000000e+000
  +5.00000000000e+000
  +5.00000000000e+000
  +5.00000000000e+000
  +5.00000000000e+000
  +5.00000000000e+000
  +5.00000000000e+000
  +5.00000000000e+000
  +5.00000000000e+000
  +5.00000000000e+000
  +5.00000000000e+000
  +5.00000000000e+000
  +5.00000000000e+000
  +5.00000000000e+000
  +5.00000000000e+000
  +5.00000000000e+000
  +5.00000000000e+000
</dep>
<dep _net0.Vt time>
  +7.86475468867e-001
  +7.86475468869e-001
  +7.86475468866e-001
  +7.86475468869e-001
  +7.86475468866e-001
  +7.86475468869e-001
  +7.86475468866e-001
  +7.86475468869e-001
  +7.86475468866e-001
  +7.86475468869e-001
  +7.86475468866e-001
  +7.86475468869e-001
  +7.86475468866e-001
  +7.86475468869e-001
  +7.86475468866e-001
  +7.86475468869e-001
  +7.86475468866e-001
  +7.86475468869e-001
  +7.86475468866e-001
  +7.86475468869e-001
  +7.86475468866e-001
  +7.86475468869e-001
  +7.86475468866e-001
  +7.86475468869e-001
  +7.86475468866e-001
  +7.86475468869e-001
  +7.86475468866e-001
  +7.86475468869e-001
  +7.86475468866e-001
  +7.86475468869e-001
  +7.86475468866e-001
  +7.86475468869e-001
  +7.86475468866e-001
  +7.86475468869e-001
  +7.86475468866e-001
  +7.86475468869e-001
  +7.86475468866e-001
  +7.86475468869e-001
  +7.86475468866e-001
  +7.86475468869e-001
  +7.86475468866e-001
  +7.86475468869e-001
  +7.86475468866e-001
  +7.86475468868e-001
  +7.86475468866e-001
  +7.86475468869e-001
  +7.86475468866e-001
  +7.86475468869e-001
  +7.86475468866e-001
  +7.86475468868e-001
  +7.86475468866e-001
  +7.86475468868e-001
  +7.86475468866e-001
  +7.86475468869e-001
  +7.86475468866e-001
  +7.86475468868e-001
  +7.86475468866e-001
  +7.86475468868e-001
  +7.86475468866e-001
  +7.86475468868e-001
  +7.86475468866e-001
  +7.86475468868e-001
  +7.86475468866e-001
  +7.86475468868e-001
  +7.86475468866e-001
  +7.86475468868e-001
  +7.86475468866e-001
  +7.86475468868e-001
  +7.86475468866e-001
  +7.86475468868e-001
  +7.86475468866e-001
  +7.86475468868e-001
  +7.86475468866e-001
  +7.86475468868e-001
  +7.86475468866e-001
  +7.86475468868e-001
  +7.86475468866e-001
  +7.86475468868e-001
  +7.86475468866e-001
  +7.86475468868e-001
  +7.86475468866e-001
  +7.86475468868e-001
  +7.86475468866e-001
  +7.86475468868e-001
  +7.86475468866e-001
  +7.86475468868e-001
  +7.86475468866e-001
  +7.86475468868e-001
  +7.86475468866e-001
  +7.86475468868e-001
  +7.86475468866e-001
  +7.86475468868e-001
  +7.86475468866e-001
  +7.86475468868e-001
  +7.86475468866e-001
  +7.86475468868e-001
  +7.86475468866e-001
  +7.86475468868e-001
  +7.86475468866e-001
  +7.86475468868e-001
  +7.86475468866e-001
  +7.86475468868e-001
